Time [s],Packet ID,MOSI,MISO
2.254857520000000,0,0xFC,0x00
2.254864320000000,0,0x00,0x02
2.254871140000000,0,0x00,0x0A
2.254880040000000,1,0x6C,0x00
2.254886860000000,1,0x33,0x00
2.254895520000000,2,0x90,0x00
2.254902320000000,2,0x37,0x0A
2.254910920000000,3,0x68,0x00
2.254917760000000,3,0x36,0x08
2.254924580000000,3,0x36,0x08
2.254931420000000,3,0x36,0x09
2.254938240000000,3,0x36,0x09
2.254945080000000,3,0x3F,0x12
2.254951880000000,3,0x3F,0x12
2.254958740000000,3,0x3F,0x13
2.254965540000000,3,0x3F,0x13
2.254974240000000,4,0x9C,0x00
2.254981100000000,4,0x55,0x55
2.254987900000000,4,0x40,0x40
2.254994760000000,4,0x00,0x00
2.255001560000000,4,0x3F,0x3F
2.255008420000000,4,0x24,0x24
2.255017020000000,5,0x88,0x00
2.255023820000000,5,0x00,0x00
2.255030640000000,5,0x08,0x00
2.255037460000000,5,0x00,0x00
2.255044280000000,5,0x00,0x00
2.255052880000000,6,0x9C,0x00
2.255059680000000,6,0x55,0x55
2.255066500000000,6,0x40,0x40
2.255073300000000,6,0x00,0x00
2.255080100000000,6,0x3F,0x3F
2.255086900000000,6,0x34,0x24
2.255095540000000,7,0x8C,0x00
2.255102340000000,7,0x32,0x02
2.255111060000000,8,0xA8,0x00
2.255117900000000,8,0x0F,0x0F
2.255124700000000,8,0x1E,0x1E
2.255133380000000,9,0x5C,0x00
2.255140220000000,9,0x0B,0x03
2.255149400000000,10,0xA0,0x00
2.255156260000000,10,0x0A,0x00
2.255163060000000,10,0x01,0x00
2.399992920000000,11,0xA0,0x00
2.400036520000000,11,0x0A,0x0A
2.400079780000000,11,0x01,0x01
2.400697000000000,12,0x1C,0x00
2.400761500000000,12,0x00,0xFF
2.428392540000000,13,0x24,0x00
2.429008440000000,14,0x1C,0x00
2.429066900000000,14,0x00,0x00
2.429139840000000,15,0xA0,0x00
2.429183100000000,15,0x0A,0x0A
2.429226360000000,15,0x01,0x01
2.429843720000000,16,0x1C,0x00
2.429886640000000,16,0x00,0x00
2.457539940000000,17,0x24,0x00
2.458155020000000,18,0x1C,0x00
2.458197940000000,18,0x00,0x00
2.485261620000000,19,0x24,0x00
2.485899160000000,20,0x1C,0x00
2.485942080000000,20,0x00,0x00
2.486014700000000,21,0xA0,0x00
2.486057960000000,21,0x0A,0x0A
2.486101220000000,21,0x01,0x01
2.486718560000000,22,0x1C,0x00
2.486785440000000,22,0x00,0x00
2.514407800000000,23,0x24,0x00
2.515023660000000,24,0x1C,0x00
2.515088000000000,24,0x00,0x00
2.515712400000000,25,0xA0,0x00
2.515756000000000,25,0x0A,0x0A
2.515799260000000,25,0x01,0x01
2.516438120000000,26,0x1C,0x00
2.516481040000000,26,0x00,0x00
2.544112060000000,27,0x24,0x00
2.544742560000000,28,0x1C,0x00
2.544785500000000,28,0x00,0x00
2.571863900000000,29,0x24,0x00
2.572479060000000,30,0x1C,0x00
2.572521980000000,30,0x00,0x00
2.599598980000000,31,0x24,0x00
2.600236760000000,32,0x1C,0x00
2.600279660000000,32,0x00,0x00
2.627332840000000,33,0x24,0x00
2.627977520000000,34,0x1C,0x00
2.628020460000000,34,0x00,0x00
2.655088280000000,35,0x24,0x00
2.655703340000000,36,0x1C,0x00
2.655767500000000,36,0x00,0x00
2.682827700000000,37,0x24,0x00
2.683464720000000,38,0x1C,0x00
2.683507640000000,38,0x00,0x00
2.710573540000000,39,0x24,0x00
2.711188560000000,40,0x1C,0x00
2.711231480000000,40,0x00,0x00
2.738312700000000,41,0x24,0x00
2.738943120000000,42,0x1C,0x00
2.738986060000000,42,0x00,0x00
2.766061020000000,43,0x24,0x00
2.766676000000000,44,0x1C,0x00
2.766718920000000,44,0x00,0x00
2.793791800000000,45,0x24,0x00
2.794429260000000,46,0x1C,0x00
2.794472180000000,46,0x00,0x00
2.821523580000000,47,0x24,0x00
2.822168800000000,48,0x1C,0x00
2.822211720000000,48,0x00,0x00
2.849279040000000,49,0x24,0x00
2.849894020000000,50,0x1C,0x00
2.849936920000000,50,0x00,0x00
2.877013380000000,51,0x24,0x00
2.877649860000000,52,0x1C,0x00
2.877692740000000,52,0x00,0x00
2.904752900000000,53,0x24,0x00
2.905367900000000,54,0x1C,0x00
2.905410820000000,54,0x00,0x00
2.932487620000000,55,0x24,0x00
2.933117740000000,56,0x1C,0x00
2.933160660000000,56,0x00,0x00
2.960206360000000,57,0x24,0x00
2.960846120000000,58,0x1C,0x00
2.960889040000000,58,0x00,0x00
3.013785500000000,59,0xA0,0x00
3.013829100000000,59,0x0A,0x0A
3.013872340000000,59,0x01,0x01
3.014510580000000,60,0x1C,0x00
3.014553480000000,60,0x00,0x00
3.042182420000000,61,0x24,0x00
3.042812820000000,62,0x1C,0x00
3.042855740000000,62,0x00,0x00
3.042928340000000,63,0xA0,0x00
3.042971580000000,63,0x0A,0x0A
3.043014860000000,63,0x01,0x01
3.043654480000000,64,0x1C,0x00
3.043697400000000,64,0x00,0x00
3.071325840000000,65,0x24,0x00
3.071962360000000,66,0x1C,0x00
3.072005260000000,66,0x00,0x00
3.099073480000000,67,0x24,0x00
3.099689260000000,68,0x1C,0x00
3.099732180000000,68,0x00,0x00
3.099804760000000,69,0xA0,0x00
3.099848020000000,69,0x0A,0x0A
3.099914540000000,69,0x01,0x01
3.100532080000000,70,0x1C,0x00
3.100575000000000,70,0x00,0x00
3.128197980000000,71,0x24,0x00
3.128835700000000,72,0x1C,0x00
3.128878620000000,72,0x00,0x00
3.129524500000000,73,0xA0,0x00
3.129568100000000,73,0x0A,0x0A
3.129611360000000,73,0x01,0x01
3.130228640000000,74,0x1C,0x00
3.130294320000000,74,0x00,0x00
3.157920420000000,75,0x24,0x00
3.158535520000000,76,0x1C,0x00
3.158601560000000,76,0x00,0x00
3.185652720000000,77,0x24,0x00
3.186298000000000,78,0x1C,0x00
3.186340920000000,78,0x00,0x00
3.213408880000000,79,0x24,0x00
3.214023900000000,80,0x1C,0x00
3.214066820000000,80,0x00,0x00
3.241149280000000,81,0x24,0x00
3.241786300000000,82,0x1C,0x00
3.241829220000000,82,0x00,0x00
3.268893840000000,83,0x24,0x00
3.269508920000000,84,0x1C,0x00
3.269551840000000,84,0x00,0x00
3.296634880000000,85,0x24,0x00
3.297265460000000,86,0x1C,0x00
3.297308380000000,86,0x00,0x00
3.324357260000000,87,0x24,0x00
3.324996540000000,88,0x1C,0x00
3.325039460000000,88,0x00,0x00
3.352119660000000,89,0x24,0x00
3.352734660000000,90,0x1C,0x00
3.352777600000000,90,0x00,0x00
3.379845480000000,91,0x24,0x00
3.380489980000000,92,0x1C,0x00
3.380532900000000,92,0x00,0x00
3.407593640000000,93,0x24,0x00
3.408208640000000,94,0x1C,0x00
3.408251560000000,94,0x00,0x00
3.435328780000000,95,0x24,0x00
3.435965560000000,96,0x1C,0x00
3.436008460000000,96,0x00,0x81
3.436100960000000,97,0xA0,0x00
3.436144540000000,97,0x0A,0x0A
3.436187800000000,97,0x01,0x01
3.487883700000000,98,0x54,0x00
3.487926620000000,98,0x30,0x00
3.487969180000000,98,0x60,0xC0
3.488012340000000,98,0x60,0x00
3.488055480000000,98,0x08,0xC0
3.488120160000000,99,0x1C,0x00
3.488162740000000,99,0x00,0x81
3.488226560000000,100,0xC0,0x00
3.488291240000000,101,0x1C,0x00
3.488333820000000,101,0x00,0x20
3.488465440000000,102,0xC4,0x00
3.488508340000000,102,0x00,0x00
3.488602120000000,102,0x00,0xAA
3.488703360000000,102,0x00,0xA8
3.488804600000000,102,0x00,0xA5
3.488905880000000,102,0x00,0x9E
3.489007140000000,102,0x00,0x9A
3.489108400000000,102,0x00,0x96
3.489209660000000,102,0x00,0x95
3.489310920000000,102,0x00,0x92
3.489412180000000,102,0x00,0xA5
3.489540260000000,102,0x00,0xA6
3.489641180000000,102,0x00,0xA6
3.489742120000000,102,0x00,0xA3
3.489843060000000,102,0x00,0xA3
3.489943980000000,102,0x00,0xA4
3.490044920000000,102,0x00,0xA3
3.490145840000000,102,0x00,0xA0
3.490246780000000,102,0x00,0x94
3.490347700000000,102,0x00,0x99
3.490468280000000,102,0x00,0x99
3.490569200000000,102,0x00,0x99
3.490670140000000,102,0x00,0x9E
3.490771060000000,102,0x00,0xA5
3.490872000000000,102,0x00,0xA9
3.490972920000000,102,0x00,0xA8
3.491073840000000,102,0x00,0x83
3.491175100000000,102,0x00,0x88
3.491276040000000,102,0x00,0x89
3.491376960000000,102,0x00,0x8C
3.491491220000000,102,0x00,0x94
3.491592140000000,102,0x00,0x9D
3.491693060000000,102,0x00,0xA1
3.491793960000000,102,0x00,0xA4
3.491894900000000,102,0x00,0x76
3.491996180000000,102,0x00,0x7E
3.492097100000000,102,0x00,0x7F
3.492198040000000,102,0x00,0x84
3.492298960000000,102,0x00,0x8B
3.492399900000000,102,0x00,0x93
3.492520880000000,102,0x00,0x95
3.492621820000000,102,0x00,0x96
3.492722740000000,102,0x00,0x72
3.492824020000000,102,0x00,0x79
3.492924940000000,102,0x00,0x7C
3.493025860000000,102,0x00,0x7F
3.493126800000000,102,0x00,0x84
3.493227720000000,102,0x00,0x87
3.493328640000000,102,0x00,0x89
3.493429560000000,102,0x00,0x86
3.493550640000000,102,0x00,0x76
3.493651560000000,102,0x00,0x7B
3.493752460000000,102,0x00,0x7B
3.493853380000000,102,0x00,0x7E
3.493954320000000,102,0x00,0x82
3.494055240000000,102,0x00,0x80
3.494156180000000,102,0x00,0x7F
3.494257100000000,102,0x00,0x7C
3.494358020000000,102,0x00,0x82
3.494458960000000,102,0x00,0x84
3.494582160000000,102,0x00,0x7F
3.494683120000000,102,0x00,0x80
3.494784060000000,102,0x00,0x7F
3.494884980000000,102,0x00,0x7F
3.494985920000000,102,0x00,0x7B
3.495086840000000,102,0x00,0x77
3.495187780000000,102,0x00,0x93
3.495288700000000,102,0x00,0x94
3.495389640000000,102,0x00,0x8D
3.495490580000000,102,0x00,0x88
3.495619240000000,102,0x00,0x83
3.495720180000000,102,0x00,0x7E
3.495821120000000,102,0x00,0x7B
3.495922040000000,102,0x00,0x76
3.496022940000000,102,0x00,0xA5
3.496123880000000,102,0x00,0xA5
3.496224800000000,102,0x00,0x9F
3.496325740000000,102,0x00,0x9B
3.496426660000000,102,0x00,0x90
3.496546880000000,102,0x00,0x8A
3.496647800000000,102,0x00,0x83
3.496748720000000,102,0x00,0x7C
3.496849640000000,102,0x00,0xAF
3.496950560000000,102,0x00,0xAF
3.497051480000000,102,0x00,0xAE
3.497152400000000,102,0x00,0xA9
3.497253340000000,102,0x00,0xA2
3.497354260000000,102,0x00,0x9C
3.497455180000000,102,0x00,0x93
3.497569500000000,102,0x00,0x8B
3.497670440000000,102,0x00,0xAE
3.497771380000000,102,0x00,0xAF
3.497872300000000,102,0x00,0xB0
3.497973220000000,102,0x00,0xB1
3.498074120000000,102,0x00,0xAF
3.498175040000000,102,0x00,0xAA
3.498275980000000,102,0x00,0xA4
3.498376860000000,102,0x00,0x9E
3.498477780000000,102,0x00,0xA1
3.498598920000000,102,0x00,0xA4
3.498699840000000,102,0x00,0xA7
3.498800740000000,102,0x00,0xAD
3.498901660000000,102,0x00,0xAD
3.499002580000000,102,0x00,0xAE
3.499103500000000,102,0x00,0xAA
3.499204440000000,102,0x00,0xA8
3.499305340000000,102,0x00,0x91
3.499406260000000,102,0x00,0x94
3.499507180000000,102,0x00,0x97
3.499627920000000,102,0x00,0xA0
3.499728840000000,102,0x00,0xA4
3.499829740000000,102,0x00,0xA6
3.499930660000000,102,0x00,0xA6
3.500031600000000,102,0x00,0xA5
3.500132520000000,102,0x00,0x82
3.500233420000000,102,0x00,0x85
3.500334360000000,102,0x00,0x89
3.500435280000000,102,0x00,0x8F
3.500536200000000,102,0x00,0x94
3.500659800000000,102,0x00,0x97
3.500760720000000,102,0x00,0x96
3.500861640000000,102,0x00,0x98
3.500962560000000,102,0x00,0x7C
3.501063500000000,102,0x00,0x7F
3.501164420000000,102,0x00,0x80
3.501265340000000,102,0x00,0x84
3.501366240000000,102,0x00,0x85
3.501467180000000,102,0x00,0x87
3.501568100000000,102,0x00,0x89
3.501697100000000,102,0x00,0x89
3.501798020000000,102,0x00,0x77
3.501898940000000,102,0x00,0x7B
3.501999860000000,102,0x00,0x7E
3.502100780000000,102,0x00,0x7C
3.502201700000000,102,0x00,0x7C
3.502302620000000,102,0x00,0x7B
3.502403560000000,102,0x00,0x79
3.502504480000000,102,0x00,0x79
3.502624620000000,102,0x00,0x75
3.502725540000000,102,0x00,0x7D
3.502826440000000,102,0x00,0x7B
3.502927380000000,102,0x00,0x7B
3.503028280000000,102,0x00,0x79
3.503129160000000,102,0x00,0x75
3.503230060000000,102,0x00,0x72
3.503330980000000,102,0x00,0x6E
3.503432240000000,102,0x00,0x7B
3.503533180000000,102,0x00,0x82
3.503646820000000,102,0x00,0x82
3.503747740000000,102,0x00,0x7F
3.503848660000000,102,0x00,0x7A
3.503949600000000,102,0x00,0x77
3.504050540000000,102,0x00,0x73
3.504151460000000,102,0x00,0x6C
3.504252720000000,102,0x00,0x85
3.504353640000000,102,0x00,0x8B
3.504454560000000,102,0x00,0x89
3.504555480000000,102,0x00,0x87
3.504677140000000,102,0x00,0x82
3.504778060000000,102,0x00,0x7D
3.504879000000000,102,0x00,0x74
3.504979920000000,102,0x00,0x6C
3.505080840000000,102,0x00,0x95
3.505181780000000,102,0x00,0x98
3.505282720000000,102,0x00,0x97
3.505383640000000,102,0x00,0x96
3.505484560000000,102,0x00,0x91
3.505585500000000,102,0x00,0x8A
3.505706920000000,102,0x00,0x82
3.505807840000000,102,0x00,0x76
3.505908780000000,102,0x00,0x9C
3.506009700000000,102,0x00,0xA2
3.506110640000000,102,0x00,0xA1
3.506211560000000,102,0x00,0x9F
3.506312480000000,102,0x00,0x9E
3.506413400000000,102,0x00,0x98
3.506514340000000,102,0x00,0x90
3.506615260000000,102,0x00,0x86
3.506737940000000,102,0x00,0x9B
3.506838860000000,102,0x00,0xA1
3.506939780000000,102,0x00,0xA3
3.507040720000000,102,0x00,0xA5
3.507141620000000,102,0x00,0xA5
3.507242560000000,102,0x00,0xA2
3.507343460000000,102,0x00,0x9C
3.507444380000000,102,0x00,0x95
3.507545300000000,102,0x00,0x8E
3.507673620000000,102,0x00,0x98
3.507774660000000,102,0x00,0x9C
3.507875560000000,102,0x00,0x9D
3.507976500000000,102,0x00,0xA1
3.508077420000000,102,0x00,0xA1
3.508178360000000,102,0x00,0xA0
3.508279300000000,102,0x00,0x99
3.508380200000000,102,0x00,0x7F
3.508481120000000,102,0x00,0x89
3.508582060000000,102,0x00,0x8E
3.508702040000000,102,0x00,0x92
3.508802980000000,102,0x00,0x99
3.508903900000000,102,0x00,0x9D
3.509004820000000,102,0x00,0x98
3.509105760000000,102,0x00,0x92
3.509206680000000,102,0x00,0x75
3.509307600000000,102,0x00,0x7C
3.509408520000000,102,0x00,0x7F
3.509509440000000,102,0x00,0x87
3.509610360000000,102,0x00,0x8D
3.509724620000000,102,0x00,0x90
3.509825540000000,102,0x00,0x8B
3.509926460000000,102,0x00,0x82
3.510027400000000,102,0x00,0x6D
3.510128320000000,102,0x00,0x74
3.510229260000000,102,0x00,0x77
3.510330180000000,102,0x00,0x7C
3.510431120000000,102,0x00,0x83
3.510532040000000,102,0x00,0x83
3.510632980000000,102,0x00,0x7C
3.510754980000000,102,0x00,0x74
3.510855900000000,102,0x00,0x6D
3.510956840000000,102,0x00,0x72
3.511057780000000,102,0x00,0x75
3.511158700000000,102,0x00,0x79
3.511259620000000,102,0x00,0x7A
3.511360520000000,102,0x00,0x79
3.511461440000000,102,0x00,0x72
3.511562360000000,102,0x00,0x69
3.511663620000000,102,0x00,0x70
3.511783680000000,102,0x00,0x75
3.511884620000000,102,0x00,0x77
3.511985540000000,102,0x00,0x77
3.512086460000000,102,0x00,0x76
3.512187400000000,102,0x00,0x74
3.512288320000000,102,0x00,0x70
3.512389240000000,102,0x00,0x6A
3.512490160000000,102,0x00,0x77
3.512591080000000,102,0x00,0x79
3.512692020000000,102,0x00,0x78
3.512814420000000,102,0x00,0x76
3.512915340000000,102,0x00,0x74
3.513016280000000,102,0x00,0x72
3.513117220000000,102,0x00,0x71
3.513218140000000,102,0x00,0x6C
3.513319080000000,102,0x00,0x84
3.513420020000000,102,0x00,0x86
3.513520940000000,102,0x00,0x85
3.513621900000000,102,0x00,0x80
3.513749980000000,102,0x00,0x7D
3.513850900000000,102,0x00,0x7A
3.513951820000000,102,0x00,0x7B
3.514052760000000,102,0x00,0x78
3.514153680000000,102,0x00,0x93
3.514254600000000,102,0x00,0x94
3.514355540000000,102,0x00,0x90
3.514456460000000,102,0x00,0x8F
3.514557400000000,102,0x00,0x8D
3.514658340000000,102,0x00,0x8A
3.514778320000000,102,0x00,0x8B
3.514879260000000,102,0x00,0x8B
3.514980200000000,102,0x00,0x98
3.515081120000000,102,0x00,0x99
3.515182060000000,102,0x00,0x98
3.515283000000000,102,0x00,0x97
3.515383920000000,102,0x00,0x95
3.515484840000000,102,0x00,0x91
3.515585760000000,102,0x00,0x91
3.515686680000000,102,0x00,0x90
3.515800320000000,102,0x00,0x9C
3.515901240000000,102,0x00,0x9C
3.516002160000000,102,0x00,0x9B
3.516103100000000,102,0x00,0x98
3.516204040000000,102,0x00,0x93
3.516304960000000,102,0x00,0x8F
3.516405880000000,102,0x00,0x8B
3.516506800000000,102,0x00,0x88
3.516607720000000,102,0x00,0x9E
3.516708660000000,102,0x00,0x9E
3.516829660000000,102,0x00,0x9B
3.516930580000000,102,0x00,0x98
3.517031500000000,102,0x00,0x8F
3.517132440000000,102,0x00,0x88
3.517233360000000,102,0x00,0x7F
3.517334280000000,102,0x00,0x78
3.517435220000000,102,0x00,0xA1
3.517536140000000,102,0x00,0xA2
3.517637060000000,102,0x00,0x9F
3.517738000000000,102,0x00,0x9A
3.517858660000000,102,0x00,0x92
3.517959580000000,102,0x00,0x87
3.518060500000000,102,0x00,0x7D
3.518161420000000,102,0x00,0x71
3.518262360000000,102,0x00,0x9D
3.518363300000000,102,0x00,0xA3
3.518464200000000,102,0x00,0xA2
3.518565120000000,102,0x00,0x9F
3.518666040000000,102,0x00,0x97
3.518766980000000,102,0x00,0x8F
3.518890000000000,102,0x00,0x86
3.518990940000000,102,0x00,0x79
3.519091880000000,102,0x00,0x92
3.519192820000000,102,0x00,0x9B
3.519293740000000,102,0x00,0x9E
3.519394660000000,102,0x00,0x9C
3.519495600000000,102,0x00,0x99
3.519596520000000,102,0x00,0x94
3.519697460000000,102,0x00,0x8F
3.519825780000000,102,0x00,0x87
3.519926720000000,102,0x00,0x84
3.520027660000000,102,0x00,0x92
3.520128560000000,102,0x00,0x97
3.520229500000000,102,0x00,0x95
3.520330420000000,102,0x00,0x94
3.520431360000000,102,0x00,0x93
3.520532300000000,102,0x00,0x93
3.520633240000000,102,0x00,0x91
3.520734140000000,102,0x00,0x75
3.520853520000000,102,0x00,0x82
3.520954460000000,102,0x00,0x89
3.521055380000000,102,0x00,0x8A
3.521156320000000,102,0x00,0x88
3.521257260000000,102,0x00,0x8A
3.521358200000000,102,0x00,0x8E
3.521459120000000,102,0x00,0x8F
3.521560040000000,102,0x00,0x69
3.521660980000000,102,0x00,0x74
3.521761900000000,102,0x00,0x7A
3.521876600000000,102,0x00,0x7B
3.521977520000000,102,0x00,0x79
3.522078460000000,102,0x00,0x7A
3.522179380000000,102,0x00,0x7F
3.522280320000000,102,0x00,0x83
3.522381260000000,102,0x00,0x67
3.522482540000000,102,0x00,0x6B
3.522583460000000,102,0x00,0x6E
3.522684400000000,102,0x00,0x6D
3.522785320000000,102,0x00,0x6B
3.522908420000000,102,0x00,0x6C
3.523009340000000,102,0x00,0x73
3.523110260000000,102,0x00,0x74
3.523211200000000,102,0x00,0x70
3.523312120000000,102,0x00,0x6F
3.523413040000000,102,0x00,0x6A
3.523513980000000,102,0x00,0x66
3.523615240000000,102,0x00,0x65
3.523716500000000,102,0x00,0x66
3.523817440000000,102,0x00,0x6A
3.523936840000000,102,0x00,0x6A
3.524037780000000,102,0x00,0x87
3.524138700000000,102,0x00,0x7F
3.524239640000000,102,0x00,0x74
3.524340560000000,102,0x00,0x6E
3.524441500000000,102,0x00,0x6B
3.524542440000000,102,0x00,0x68
3.524643360000000,102,0x00,0x6B
3.524744280000000,102,0x00,0x69
3.524845200000000,102,0x00,0x9C
3.524967640000000,102,0x00,0x96
3.525068580000000,102,0x00,0x8A
3.525169520000000,102,0x00,0x81
3.525270440000000,102,0x00,0x7B
3.525371360000000,102,0x00,0x77
3.525472280000000,102,0x00,0x74
3.525573200000000,102,0x00,0x6F
3.525674140000000,102,0x00,0xAB
3.525775060000000,102,0x00,0xA6
3.525903160000000,102,0x00,0x9F
3.526004100000000,102,0x00,0x96
3.526105040000000,102,0x00,0x8E
3.526205980000000,102,0x00,0x89
3.526306920000000,102,0x00,0x84
3.526407860000000,102,0x00,0x7E
3.526508800000000,102,0x00,0xB1
3.526609740000000,102,0x00,0xB0
3.526710680000000,102,0x00,0xAA
3.526811600000000,102,0x00,0xA5
3.526931840000000,102,0x00,0xA0
3.527032780000000,102,0x00,0x9B
3.527133700000000,102,0x00,0x96
3.527234640000000,102,0x00,0x91
3.527335580000000,102,0x00,0xB1
3.527436520000000,102,0x00,0xB2
3.527537440000000,102,0x00,0xAE
3.527638380000000,102,0x00,0xA9
3.527739320000000,102,0x00,0xA7
3.527840260000000,102,0x00,0xA4
3.527953940000000,102,0x00,0xA3
3.528054860000000,102,0x00,0x9E
3.528155800000000,102,0x00,0xA7
3.528256720000000,102,0x00,0xAA
3.528357640000000,102,0x00,0xA7
3.528458580000000,102,0x00,0xA7
3.528559520000000,102,0x00,0xA6
3.528660460000000,102,0x00,0xA6
3.528761360000000,102,0x00,0xA5
3.528862260000000,102,0x00,0xA3
3.528983840000000,102,0x00,0x94
3.529084760000000,102,0x00,0x97
3.529185680000000,102,0x00,0x9A
3.529286620000000,102,0x00,0x99
3.529387560000000,102,0x00,0x9A
3.529488500000000,102,0x00,0x9B
3.529589420000000,102,0x00,0x9A
3.529690320000000,102,0x00,0x9B
3.529791260000000,102,0x00,0x7A
3.529892200000000,102,0x00,0x7E
3.530012880000000,102,0x00,0x82
3.530113800000000,102,0x00,0x83
3.530214740000000,102,0x00,0x84
3.530315660000000,102,0x00,0x83
3.530416560000000,102,0x00,0x82
3.530517440000000,102,0x00,0x83
3.530618360000000,102,0x00,0x67
3.530719280000000,102,0x00,0x6B
3.530820200000000,102,0x00,0x6E
3.530943040000000,102,0x00,0x71
3.531043980000000,102,0x00,0x70
3.531144900000000,102,0x00,0x6D
3.531245840000000,102,0x00,0x6C
3.531346760000000,102,0x00,0x6D
3.531447700000000,102,0x00,0x62
3.531548960000000,102,0x00,0x66
3.531649900000000,102,0x00,0x67
3.531750820000000,102,0x00,0x66
3.531851740000000,102,0x00,0x65
3.531981000000000,102,0x00,0x62
3.532081920000000,102,0x00,0x61
3.532183200000000,102,0x00,0x61
3.532284140000000,102,0x00,0x6D
3.532385060000000,102,0x00,0x6C
3.532486000000000,102,0x00,0x6A
3.532586940000000,102,0x00,0x66
3.532687860000000,102,0x00,0x63
3.532788780000000,102,0x00,0x61
3.532889700000000,102,0x00,0x5F
3.533010620000000,102,0x00,0x5F
3.533111540000000,102,0x00,0x80
3.533212460000000,102,0x00,0x7D
3.533313380000000,102,0x00,0x74
3.533414320000000,102,0x00,0x6D
3.533515240000000,102,0x00,0x68
3.533616180000000,102,0x00,0x65
3.533717100000000,102,0x00,0x65
3.533818020000000,102,0x00,0x62
3.533918960000000,102,0x00,0x95
3.534033360000000,102,0x00,0x90
3.534134300000000,102,0x00,0x84
3.534235240000000,102,0x00,0x7B
3.534336180000000,102,0x00,0x75
3.534437100000000,102,0x00,0x73
3.534538040000000,102,0x00,0x73
3.534638960000000,102,0x00,0x71
3.534739900000000,102,0x00,0xA3
3.534840820000000,102,0x00,0x9E
3.534941760000000,102,0x00,0x94
3.535063960000000,102,0x00,0x8A
3.535164880000000,102,0x00,0x85
3.535265820000000,102,0x00,0x83
3.535366740000000,102,0x00,0x87
3.535467680000000,102,0x00,0x84
3.535568600000000,102,0x00,0xA9
3.535669520000000,102,0x00,0xA6
3.535770440000000,102,0x00,0x9D
3.535871380000000,102,0x00,0x96
3.535972300000000,102,0x00,0x93
3.536093660000000,102,0x00,0x95
3.536194600000000,102,0x00,0x99
3.536295540000000,102,0x00,0x98
3.536396480000000,102,0x00,0xA7
3.536497400000000,102,0x00,0xA5
3.536598320000000,102,0x00,0x9D
3.536699260000000,102,0x00,0x98
3.536800180000000,102,0x00,0x99
3.536901120000000,102,0x00,0x9E
3.537024400000000,102,0x00,0xA5
3.537125320000000,102,0x00,0xA7
3.537226220000000,102,0x00,0x9B
3.537327160000000,102,0x00,0x9A
3.537428100000000,102,0x00,0x95
3.537529020000000,102,0x00,0x91
3.537629940000000,102,0x00,0x93
3.537730860000000,102,0x00,0x9C
3.537831800000000,102,0x00,0xA7
3.537932740000000,102,0x00,0xAA
3.538060840000000,102,0x00,0x88
3.538161760000000,102,0x00,0x89
3.538262660000000,102,0x00,0x87
3.538363580000000,102,0x00,0x85
3.538464520000000,102,0x00,0x8B
3.538565440000000,102,0x00,0x96
3.538666380000000,102,0x00,0xA1
3.538767300000000,102,0x00,0xA8
3.538868240000000,102,0x00,0x75
3.538969160000000,102,0x00,0x78
3.539089740000000,102,0x00,0x77
3.539190680000000,102,0x00,0x79
3.539291600000000,102,0x00,0x80
3.539392520000000,102,0x00,0x8A
3.539493420000000,102,0x00,0x95
3.539594340000000,102,0x00,0x9C
3.539695260000000,102,0x00,0x69
3.539796180000000,102,0x00,0x6C
3.539897100000000,102,0x00,0x6C
3.539998020000000,102,0x00,0x6C
3.540112360000000,102,0x00,0x71
3.540213280000000,102,0x00,0x79
3.540314220000000,102,0x00,0x84
3.540415160000000,102,0x00,0x8A
3.540516080000000,102,0x00,0x69
3.540617000000000,102,0x00,0x67
3.540717920000000,102,0x00,0x63
3.540818820000000,102,0x00,0x63
3.540919760000000,102,0x00,0x64
3.541020680000000,102,0x00,0x69
3.541141180000000,102,0x00,0x71
3.541242120000000,102,0x00,0x74
3.541343020000000,102,0x00,0x74
3.541443960000000,102,0x00,0x6B
3.541544900000000,102,0x00,0x63
3.541645840000000,102,0x00,0x61
3.541746760000000,102,0x00,0x60
3.541847680000000,102,0x00,0x61
3.541948620000000,102,0x00,0x65
3.542068600000000,102,0x00,0x65
3.542169540000000,102,0x00,0x84
3.542270480000000,102,0x00,0x79
3.542371420000000,102,0x00,0x6D
3.542472360000000,102,0x00,0x69
3.542573300000000,102,0x00,0x66
3.542674220000000,102,0x00,0x63
3.542775140000000,102,0x00,0x62
3.542876080000000,102,0x00,0x60
3.542977000000000,102,0x00,0x95
3.543100020000000,102,0x00,0x8B
3.543200960000000,102,0x00,0x7F
3.543301880000000,102,0x00,0x79
3.543402760000000,102,0x00,0x74
3.543503700000000,102,0x00,0x70
3.543604640000000,102,0x00,0x69
3.543705580000000,102,0x00,0x63
3.543806500000000,102,0x00,0xA0
3.543907440000000,102,0x00,0x98
3.544008360000000,102,0x00,0x90
3.544137040000000,102,0x00,0x8C
3.544237980000000,102,0x00,0x88
3.544338900000000,102,0x00,0x81
3.544439840000000,102,0x00,0x79
3.544540760000000,102,0x00,0x72
3.544641680000000,102,0x00,0x9E
3.544742600000000,102,0x00,0x9B
3.544843520000000,102,0x00,0x97
3.544944440000000,102,0x00,0x95
3.545045360000000,102,0x00,0x94
3.545167440000000,102,0x00,0x90
3.545268360000000,102,0x00,0x8A
3.545369300000000,102,0x00,0x83
3.545470220000000,102,0x00,0x92
3.545571160000000,102,0x00,0x94
3.545672080000000,102,0x00,0x93
3.545773020000000,102,0x00,0x96
3.545873940000000,102,0x00,0x96
3.545974860000000,102,0x00,0x95
3.546075780000000,102,0x00,0x92
3.546189420000000,102,0x00,0x8D
3.546290340000000,102,0x00,0x7F
3.546391280000000,102,0x00,0x85
3.546492200000000,102,0x00,0x86
3.546593140000000,102,0x00,0x8B
3.546694060000000,102,0x00,0x8E
3.546794980000000,102,0x00,0x8E
3.546895900000000,102,0x00,0x8F
3.546996820000000,102,0x00,0x8C
3.547097760000000,102,0x00,0x6A
3.547219440000000,102,0x00,0x6E
3.547320380000000,102,0x00,0x72
3.547421320000000,102,0x00,0x79
3.547522240000000,102,0x00,0x7E
3.547623160000000,102,0x00,0x7F
3.547724100000000,102,0x00,0x80
3.547825000000000,102,0x00,0x81
3.547925920000000,102,0x00,0x5F
3.548026860000000,102,0x00,0x63
3.548147080000000,102,0x00,0x63
3.548248000000000,102,0x00,0x6A
3.548348920000000,102,0x00,0x70
3.548449820000000,102,0x00,0x71
3.548550740000000,102,0x00,0x72
3.548651680000000,102,0x00,0x75
3.548752600000000,102,0x00,0x5E
3.548853840000000,102,0x00,0x5E
3.548954780000000,102,0x00,0x5D
3.549056040000000,102,0x00,0x5E
3.549178620000000,102,0x00,0x64
3.549279540000000,102,0x00,0x66
3.549380480000000,102,0x00,0x67
3.549481400000000,102,0x00,0x69
3.549582320000000,102,0x00,0x68
3.549683240000000,102,0x00,0x61
3.549784180000000,102,0x00,0x5F
3.549885100000000,102,0x00,0x5C
3.549986380000000,102,0x00,0x60
3.550087300000000,102,0x00,0x61
3.550215560000000,102,0x00,0x61
3.550316480000000,102,0x00,0x60
3.550417400000000,102,0x00,0x7D
3.550518340000000,102,0x00,0x74
3.550619260000000,102,0x00,0x6E
3.550720160000000,102,0x00,0x68
3.550821080000000,102,0x00,0x64
3.550921980000000,102,0x00,0x61
3.551022880000000,102,0x00,0x63
3.551123820000000,102,0x00,0x62
3.551244400000000,102,0x00,0x90
3.551345320000000,102,0x00,0x8A
3.551446240000000,102,0x00,0x82
3.551547140000000,102,0x00,0x7A
3.551648060000000,102,0x00,0x70
3.551748980000000,102,0x00,0x68
3.551849920000000,102,0x00,0x66
3.551950840000000,102,0x00,0x66
3.552051760000000,102,0x00,0x95
3.552152680000000,102,0x00,0x96
3.552267180000000,102,0x00,0x95
3.552368100000000,102,0x00,0x8F
3.552469000000000,102,0x00,0x84
3.552569920000000,102,0x00,0x79
3.552670860000000,102,0x00,0x71
3.552771780000000,102,0x00,0x6F
3.552872700000000,102,0x00,0x8B
3.552973640000000,102,0x00,0x93
3.553074560000000,102,0x00,0x98
3.553175500000000,102,0x00,0x99
3.553296500000000,102,0x00,0x94
3.553397440000000,102,0x00,0x88
3.553498380000000,102,0x00,0x7F
3.553599320000000,102,0x00,0x7B
3.553700240000000,102,0x00,0x76
3.553801160000000,102,0x00,0x82
3.553902080000000,102,0x00,0x8F
3.554003000000000,102,0x00,0x97
3.554103920000000,102,0x00,0x99
3.554224580000000,102,0x00,0x94
3.554325520000000,102,0x00,0x8C
3.554426460000000,102,0x00,0x88
3.554527380000000,102,0x00,0x64
3.554628320000000,102,0x00,0x71
3.554729260000000,102,0x00,0x7F
3.554830200000000,102,0x00,0x8D
3.554931120000000,102,0x00,0x95
3.555032040000000,102,0x00,0x95
3.555132960000000,102,0x00,0x92
3.555254800000000,102,0x00,0x8F
3.555355740000000,102,0x00,0x5B
3.555457000000000,102,0x00,0x63
3.555557920000000,102,0x00,0x6C
3.555658840000000,102,0x00,0x79
3.555759760000000,102,0x00,0x85
3.555860680000000,102,0x00,0x8B
3.555961600000000,102,0x00,0x8D
3.556062500000000,102,0x00,0x8E
3.556163440000000,102,0x00,0x56
3.556292940000000,102,0x00,0x59
3.556393860000000,102,0x00,0x5E
3.556494780000000,102,0x00,0x66
3.556595700000000,102,0x00,0x70
3.556696620000000,102,0x00,0x79
3.556797540000000,102,0x00,0x80
3.556898460000000,102,0x00,0x83
3.556999360000000,102,0x00,0x58
3.557100280000000,102,0x00,0x59
3.557201200000000,102,0x00,0x5A
3.557322040000000,102,0x00,0x5F
3.557422960000000,102,0x00,0x64
3.557523880000000,102,0x00,0x6B
3.557624800000000,102,0x00,0x71
3.557725740000000,102,0x00,0x76
3.557826680000000,102,0x00,0x5D
3.557927600000000,102,0x00,0x5D
3.558028560000000,102,0x00,0x5A
3.558129500000000,102,0x00,0x5D
3.558230420000000,102,0x00,0x61
3.558344260000000,102,0x00,0x63
3.558445200000000,102,0x00,0x67
3.558546120000000,102,0x00,0x66
3.558647040000000,102,0x00,0x6D
3.558747940000000,102,0x00,0x69
3.558848840000000,102,0x00,0x68
3.558949760000000,102,0x00,0x67
3.559050680000000,102,0x00,0x68
3.559151600000000,102,0x00,0x66
3.559273180000000,102,0x00,0x63
3.559374100000000,102,0x00,0x60
3.559475040000000,102,0x00,0x7D
3.559575960000000,102,0x00,0x7D
3.559676860000000,102,0x00,0x7A
3.559777780000000,102,0x00,0x7C
3.559878720000000,102,0x00,0x7A
3.559979640000000,102,0x00,0x74
3.560080560000000,102,0x00,0x6D
3.560181500000000,102,0x00,0x64
3.560301580000000,102,0x00,0x7E
3.560402500000000,102,0x00,0x85
3.560503460000000,102,0x00,0x87
3.560604400000000,102,0x00,0x8C
3.560705320000000,102,0x00,0x8B
3.560806260000000,102,0x00,0x88
3.560907200000000,102,0x00,0x80
3.561008120000000,102,0x00,0x71
3.561109060000000,102,0x00,0x70
3.561209980000000,102,0x00,0x7E
3.561332400000000,102,0x00,0x87
3.561433320000000,102,0x00,0x8D
3.561534260000000,102,0x00,0x94
3.561635180000000,102,0x00,0x94
3.561736120000000,102,0x00,0x92
3.561837040000000,102,0x00,0x87
3.561937980000000,102,0x00,0x61
3.562038920000000,102,0x00,0x6C
3.562139840000000,102,0x00,0x75
3.562240760000000,102,0x00,0x80
3.562368940000000,102,0x00,0x8C
3.562469860000000,102,0x00,0x95
3.562570780000000,102,0x00,0x99
3.562671700000000,102,0x00,0x95
3.562772640000000,102,0x00,0x59
3.562873580000000,102,0x00,0x5F
3.562974500000000,102,0x00,0x64
3.563075440000000,102,0x00,0x6C
3.563176380000000,102,0x00,0x78
3.563277320000000,102,0x00,0x86
3.563397300000000,102,0x00,0x93
3.563498220000000,102,0x00,0x97
3.563599140000000,102,0x00,0x57
3.563700080000000,102,0x00,0x59
3.563801020000000,102,0x00,0x59
3.563901920000000,102,0x00,0x5E
3.564002840000000,102,0x00,0x65
3.564103760000000,102,0x00,0x72
3.564204700000000,102,0x00,0x81
3.564305620000000,102,0x00,0x8C
3.564419280000000,102,0x00,0x56
3.564520220000000,102,0x00,0x55
3.564621480000000,102,0x00,0x54
3.564722760000000,102,0x00,0x56
3.564823680000000,102,0x00,0x5B
3.564924600000000,102,0x00,0x62
3.565025520000000,102,0x00,0x6E
3.565126460000000,102,0x00,0x79
3.565227380000000,102,0x00,0x5D
3.565348620000000,102,0x00,0x59
3.565449560000000,102,0x00,0x59
3.565550480000000,102,0x00,0x5A
3.565651400000000,102,0x00,0x5D
3.565752340000000,102,0x00,0x60
3.565853280000000,102,0x00,0x65
3.565954200000000,102,0x00,0x6A
3.566055120000000,102,0x00,0x68
3.566156060000000,102,0x00,0x63
3.566256980000000,102,0x00,0x61
3.566378160000000,102,0x00,0x66
3.566479100000000,102,0x00,0x68
3.566580040000000,102,0x00,0x69
3.566680980000000,102,0x00,0x67
3.566781920000000,102,0x00,0x64
3.566882860000000,102,0x00,0x7D
3.566983800000000,102,0x00,0x77
3.567084720000000,102,0x00,0x79
3.567185660000000,102,0x00,0x7E
3.567286580000000,102,0x00,0x80
3.567409280000000,102,0x00,0x7C
3.567510220000000,102,0x00,0x78
3.567611160000000,102,0x00,0x70
3.567684960000000,103,0x54,0x00
3.567727880000000,103,0x00,0x30
3.567771040000000,103,0xC0,0x60
3.567814200000000,103,0x00,0x60
3.567856800000000,103,0xC0,0x08
3.571867220000000,104,0x1C,0x00
3.571878820000000,104,0x00,0x00
3.571896160000000,105,0xC0,0x00
3.571912940000000,106,0x1C,0x00
3.571924560000000,106,0x00,0x00
3.571959860000000,107,0xC0,0x00
3.571976680000000,108,0x1C,0x00
3.571988300000000,108,0x00,0x20
3.572029220000000,109,0xC4,0x00
3.572040740000000,109,0x00,0x00
3.572053080000000,109,0x00,0xF5
3.572065060000000,109,0x00,0xF4
3.572077080000000,109,0x00,0xF5
3.572089120000000,109,0x00,0xF4
3.572101140000000,109,0x00,0xF5
3.572113180000000,109,0x00,0xF4
3.572125220000000,109,0x00,0xF5
3.572137240000000,109,0x00,0xF3
3.572149280000000,109,0x00,0xF3
3.572161300000000,109,0x00,0xF2
3.572173340000000,109,0x00,0xF2
3.572185380000000,109,0x00,0xF1
3.572197400000000,109,0x00,0xF0
3.572209440000000,109,0x00,0xEF
3.572221460000000,109,0x00,0xEE
3.572233500000000,109,0x00,0xEC
3.572245540000000,109,0x00,0xED
3.572257560000000,109,0x00,0xEC
3.572269600000000,109,0x00,0xEB
3.572281640000000,109,0x00,0xE8
3.572293660000000,109,0x00,0xE6
3.572305700000000,109,0x00,0xE6
3.572317720000000,109,0x00,0xE4
3.572329760000000,109,0x00,0xE1
3.572341800000000,109,0x00,0xE1
3.572353840000000,109,0x00,0xDF
3.572365860000000,109,0x00,0xDD
3.572377900000000,109,0x00,0xDA
3.572389920000000,109,0x00,0xD6
3.572401960000000,109,0x00,0xD5
3.572414000000000,109,0x00,0xD1
3.572426040000000,109,0x00,0xCD
3.572438060000000,109,0x00,0xCB
3.572450100000000,109,0x00,0xCA
3.572462120000000,109,0x00,0xC5
3.572474160000000,109,0x00,0xC3
3.572486200000000,109,0x00,0xBF
3.572498220000000,109,0x00,0xBC
3.572510260000000,109,0x00,0xB7
3.572522280000000,109,0x00,0xAE
3.572534320000000,109,0x00,0xA6
3.572546340000000,109,0x00,0xA0
3.572558380000000,109,0x00,0x9A
3.572570420000000,109,0x00,0x95
3.572582440000000,109,0x00,0x8F
3.572594480000000,109,0x00,0x8E
3.572606500000000,109,0x00,0x8E
3.572618540000000,109,0x00,0x8D
3.572630560000000,109,0x00,0x8E
3.572642580000000,109,0x00,0x90
3.572654620000000,109,0x00,0x8F
3.572666660000000,109,0x00,0x8E
3.572678700000000,109,0x00,0x8A
3.572690720000000,109,0x00,0x8D
3.572702760000000,109,0x00,0x8E
3.572714800000000,109,0x00,0x94
3.572726820000000,109,0x00,0x98
3.572738860000000,109,0x00,0x9C
3.572750900000000,109,0x00,0xA0
3.572762920000000,109,0x00,0xA0
3.572774960000000,109,0x00,0x9E
3.572786980000000,109,0x00,0x9D
3.572799020000000,109,0x00,0x9A
3.572811060000000,109,0x00,0x99
3.572823080000000,109,0x00,0x9A
3.572835120000000,109,0x00,0x9A
3.572847160000000,109,0x00,0x9D
3.572859180000000,109,0x00,0x9E
3.572871220000000,109,0x00,0x9E
3.572883240000000,109,0x00,0x97
3.572895280000000,109,0x00,0x8F
3.572907320000000,109,0x00,0x88
3.572919340000000,109,0x00,0x85
3.572931380000000,109,0x00,0x85
3.572943420000000,109,0x00,0x83
3.572955440000000,109,0x00,0x81
3.572967480000000,109,0x00,0x80
3.572979520000000,109,0x00,0x81
3.572991540000000,109,0x00,0x82
3.573003580000000,109,0x00,0x86
3.573015620000000,109,0x00,0x8C
3.573032580000000,109,0x00,0x93
3.573044620000000,109,0x00,0x9A
3.573056640000000,109,0x00,0xA2
3.573068680000000,109,0x00,0xA8
3.573080720000000,109,0x00,0xAD
3.573092740000000,109,0x00,0xAD
3.573104780000000,109,0x00,0xAD
3.573116820000000,109,0x00,0xAD
3.573128840000000,109,0x00,0xAC
3.573140880000000,109,0x00,0xAB
3.573152900000000,109,0x00,0xA8
3.573164940000000,109,0x00,0xA5
3.573176980000000,109,0x00,0xA2
3.573189000000000,109,0x00,0xA1
3.573201040000000,109,0x00,0xA0
3.573213080000000,109,0x00,0xA3
3.573225100000000,109,0x00,0xA9
3.573237140000000,109,0x00,0xAC
3.573249180000000,109,0x00,0xB0
3.573261220000000,109,0x00,0xB3
3.573273240000000,109,0x00,0xB3
3.573285280000000,109,0x00,0xB3
3.573297300000000,109,0x00,0xB3
3.573309340000000,109,0x00,0xB3
3.573321380000000,109,0x00,0xB6
3.573333400000000,109,0x00,0xB5
3.573345440000000,109,0x00,0xB6
3.573357480000000,109,0x00,0xB5
3.573369500000000,109,0x00,0xB3
3.573381540000000,109,0x00,0xB0
3.573393560000000,109,0x00,0xAC
3.573405600000000,109,0x00,0xAB
3.573417640000000,109,0x00,0xAB
3.573429660000000,109,0x00,0xA8
3.573441700000000,109,0x00,0xAA
3.573453740000000,109,0x00,0xAB
3.573465760000000,109,0x00,0xAE
3.573477800000000,109,0x00,0xB0
3.573489840000000,109,0x00,0xAE
3.573501860000000,109,0x00,0xAF
3.573513900000000,109,0x00,0xB1
3.573525920000000,109,0x00,0xB1
3.573537960000000,109,0x00,0xB1
3.573550000000000,109,0x00,0xB3
3.573562040000000,109,0x00,0xB3
3.573574060000000,109,0x00,0xB5
3.573586100000000,109,0x00,0xB3
3.573598140000000,109,0x00,0xB3
3.573610160000000,109,0x00,0xB2
3.573622200000000,109,0x00,0xB1
3.573634240000000,109,0x00,0xAD
3.573646280000000,109,0x00,0xA9
3.573658300000000,109,0x00,0xA8
3.573670340000000,109,0x00,0xA7
3.573682380000000,109,0x00,0xA8
3.573694400000000,109,0x00,0xAA
3.573706440000000,109,0x00,0xAC
3.573718480000000,109,0x00,0xAF
3.573730500000000,109,0x00,0xAF
3.573742540000000,109,0x00,0xB0
3.573754580000000,109,0x00,0xB2
3.573766620000000,109,0x00,0xBA
3.573778640000000,109,0x00,0xBD
3.573790680000000,109,0x00,0xC3
3.573802700000000,109,0x00,0xC9
3.573814740000000,109,0x00,0xCD
3.573826780000000,109,0x00,0xCF
3.573838820000000,109,0x00,0xD3
3.573850840000000,109,0x00,0xD5
3.573862880000000,109,0x00,0xD8
3.573874900000000,109,0x00,0xD9
3.573886940000000,109,0x00,0xD9
3.573898980000000,109,0x00,0xDA
3.573911000000000,109,0x00,0xDD
3.573923040000000,109,0x00,0xDF
3.573935060000000,109,0x00,0xE0
3.573947100000000,109,0x00,0xE1
3.573959140000000,109,0x00,0xE4
3.573971160000000,109,0x00,0xE4
3.573983200000000,109,0x00,0xE6
3.573995240000000,109,0x00,0xE8
3.574007260000000,109,0x00,0xEA
3.574019300000000,109,0x00,0xEC
3.574036880000000,109,0x00,0xED
3.574048900000000,109,0x00,0xEF
3.574060940000000,109,0x00,0xEF
3.574072980000000,109,0x00,0xF0
3.574085000000000,109,0x00,0xF1
3.574097040000000,109,0x00,0xF1
3.574109080000000,109,0x00,0xF3
3.574121120000000,109,0x00,0xF2
3.574133140000000,109,0x00,0xF3
3.574145180000000,109,0x00,0xF5
3.574157220000000,109,0x00,0xF4
3.574169240000000,109,0x00,0xF6
3.574181280000000,109,0x00,0xF6
3.574193320000000,109,0x00,0xF6
3.574205360000000,109,0x00,0xF6
3.574217380000000,109,0x00,0xF5
3.574229420000000,109,0x00,0xF7
3.574241460000000,109,0x00,0xF6
3.574253500000000,109,0x00,0xF6
3.574265520000000,109,0x00,0xF7
3.574277560000000,109,0x00,0xF6
3.574289600000000,109,0x00,0xF7
3.574301620000000,109,0x00,0xF7
3.574313660000000,109,0x00,0xF7
3.574325700000000,109,0x00,0xF7
3.574337740000000,109,0x00,0xF7
3.574349760000000,109,0x00,0xF6
3.574361800000000,109,0x00,0xF6
3.574373840000000,109,0x00,0xF5
3.574385860000000,109,0x00,0xF5
3.574397900000000,109,0x00,0xF5
3.574409940000000,109,0x00,0xF5
3.574421960000000,109,0x00,0xF5
3.574434000000000,109,0x00,0xF4
3.574446020000000,109,0x00,0xF3
3.574458060000000,109,0x00,0xF3
3.574470100000000,109,0x00,0xF2
3.574482120000000,109,0x00,0xF1
3.574494160000000,109,0x00,0xF1
3.574506200000000,109,0x00,0xF0
3.574518220000000,109,0x00,0xEE
3.574530260000000,109,0x00,0xEE
3.574542300000000,109,0x00,0xEC
3.574554320000000,109,0x00,0xEB
3.574566360000000,109,0x00,0xEA
3.574578400000000,109,0x00,0xEA
3.574590420000000,109,0x00,0xE9
3.574602460000000,109,0x00,0xE6
3.574614480000000,109,0x00,0xE4
3.574626520000000,109,0x00,0xE3
3.574638560000000,109,0x00,0xE2
3.574650580000000,109,0x00,0xDF
3.574662620000000,109,0x00,0xDC
3.574674640000000,109,0x00,0xDA
3.574686680000000,109,0x00,0xDA
3.574698720000000,109,0x00,0xD6
3.574710740000000,109,0x00,0xD4
3.574722780000000,109,0x00,0xCF
3.574734800000000,109,0x00,0xCB
3.574746840000000,109,0x00,0xC7
3.574758880000000,109,0x00,0xC5
3.574770900000000,109,0x00,0xC3
3.574782940000000,109,0x00,0xBC
3.574794960000000,109,0x00,0xBA
3.574807000000000,109,0x00,0xB7
3.574819040000000,109,0x00,0xB2
3.574831060000000,109,0x00,0xAC
3.574843100000000,109,0x00,0xA4
3.574855140000000,109,0x00,0x9B
3.574867160000000,109,0x00,0x95
3.574879200000000,109,0x00,0x8F
3.574891240000000,109,0x00,0x87
3.574903260000000,109,0x00,0x82
3.574915300000000,109,0x00,0x80
3.574927340000000,109,0x00,0x82
3.574939380000000,109,0x00,0x82
3.574951400000000,109,0x00,0x84
3.574963440000000,109,0x00,0x88
3.574975480000000,109,0x00,0x86
3.574987500000000,109,0x00,0x84
3.574999540000000,109,0x00,0x80
3.575011560000000,109,0x00,0x7E
3.575023600000000,109,0x00,0x7E
3.575035620000000,109,0x00,0x7E
3.575054580000000,109,0x00,0x83
3.575066620000000,109,0x00,0x88
3.575078660000000,109,0x00,0x8A
3.575090700000000,109,0x00,0x8E
3.575102720000000,109,0x00,0x8C
3.575114760000000,109,0x00,0x8B
3.575126800000000,109,0x00,0x8E
3.575138820000000,109,0x00,0x8E
3.575150860000000,109,0x00,0x93
3.575162900000000,109,0x00,0x98
3.575174920000000,109,0x00,0x9D
3.575186960000000,109,0x00,0xA1
3.575199000000000,109,0x00,0xA1
3.575211020000000,109,0x00,0x9F
3.575223060000000,109,0x00,0x98
3.575235080000000,109,0x00,0x8F
3.575247120000000,109,0x00,0x8C
3.575259160000000,109,0x00,0x8A
3.575271180000000,109,0x00,0x89
3.575283220000000,109,0x00,0x85
3.575295260000000,109,0x00,0x80
3.575307280000000,109,0x00,0x7D
3.575319320000000,109,0x00,0x7A
3.575331360000000,109,0x00,0x79
3.575343380000000,109,0x00,0x7D
3.575355420000000,109,0x00,0x83
3.575367440000000,109,0x00,0x89
3.575379480000000,109,0x00,0x92
3.575391520000000,109,0x00,0x99
3.575403540000000,109,0x00,0xA1
3.575415580000000,109,0x00,0xA3
3.575427600000000,109,0x00,0xA6
3.575439640000000,109,0x00,0xA7
3.575451660000000,109,0x00,0xA7
3.575463700000000,109,0x00,0xA6
3.575475720000000,109,0x00,0xA1
3.575487760000000,109,0x00,0x9F
3.575499780000000,109,0x00,0x9B
3.575511820000000,109,0x00,0x98
3.575523860000000,109,0x00,0x96
3.575535880000000,109,0x00,0x95
3.575547920000000,109,0x00,0x9A
3.575559940000000,109,0x00,0xA0
3.575571980000000,109,0x00,0x9F
3.575584020000000,109,0x00,0xA3
3.575596060000000,109,0x00,0xA3
3.575608080000000,109,0x00,0xA4
3.575620120000000,109,0x00,0xA3
3.575632140000000,109,0x00,0xA4
3.575644180000000,109,0x00,0xAA
3.575656220000000,109,0x00,0xAD
3.575668260000000,109,0x00,0xAF
3.575680280000000,109,0x00,0xAE
3.575692320000000,109,0x00,0xAE
3.575704340000000,109,0x00,0xAC
3.575716380000000,109,0x00,0xA6
3.575728420000000,109,0x00,0xA5
3.575740440000000,109,0x00,0xA2
3.575752480000000,109,0x00,0xA1
3.575764520000000,109,0x00,0xA0
3.575776540000000,109,0x00,0xA2
3.575788580000000,109,0x00,0xA3
3.575800620000000,109,0x00,0xA3
3.575812640000000,109,0x00,0xA1
3.575824680000000,109,0x00,0xA1
3.575836720000000,109,0x00,0xA2
3.575848760000000,109,0x00,0xA5
3.575860780000000,109,0x00,0xA6
3.575872820000000,109,0x00,0xA9
3.575884840000000,109,0x00,0xAA
3.575896880000000,109,0x00,0xAA
3.575908920000000,109,0x00,0xAC
3.575920940000000,109,0x00,0xAD
3.575932980000000,109,0x00,0xAE
3.575945020000000,109,0x00,0xAC
3.575957040000000,109,0x00,0xA8
3.575969080000000,109,0x00,0xA3
3.575981100000000,109,0x00,0xA2
3.575993140000000,109,0x00,0x9E
3.576005180000000,109,0x00,0x9F
3.576017200000000,109,0x00,0xA1
3.576029240000000,109,0x00,0xA2
3.576041280000000,109,0x00,0xA2
3.576053300000000,109,0x00,0xA0
3.576070240000000,109,0x00,0xA4
3.576082280000000,109,0x00,0xA7
3.576094300000000,109,0x00,0xAE
3.576106340000000,109,0x00,0xB2
3.576118380000000,109,0x00,0xB9
3.576130400000000,109,0x00,0xBF
3.576142440000000,109,0x00,0xC2
3.576154460000000,109,0x00,0xC8
3.576166500000000,109,0x00,0xCC
3.576178540000000,109,0x00,0xD2
3.576190560000000,109,0x00,0xD2
3.576202600000000,109,0x00,0xD4
3.576214620000000,109,0x00,0xD6
3.576226660000000,109,0x00,0xD9
3.576238680000000,109,0x00,0xDA
3.576250720000000,109,0x00,0xDB
3.576262740000000,109,0x00,0xDD
3.576274780000000,109,0x00,0xDE
3.576286800000000,109,0x00,0xE1
3.576298840000000,109,0x00,0xE3
3.576310860000000,109,0x00,0xE4
3.576322900000000,109,0x00,0xE6
3.576334920000000,109,0x00,0xE9
3.576346960000000,109,0x00,0xEA
3.576359000000000,109,0x00,0xEC
3.576371020000000,109,0x00,0xEE
3.576383060000000,109,0x00,0xEF
3.576395080000000,109,0x00,0xF0
3.576407120000000,109,0x00,0xF1
3.576419160000000,109,0x00,0xF2
3.576431180000000,109,0x00,0xF4
3.576443220000000,109,0x00,0xF4
3.576455240000000,109,0x00,0xF4
3.576467280000000,109,0x00,0xF6
3.576479320000000,109,0x00,0xF6
3.576491340000000,109,0x00,0xF6
3.576503380000000,109,0x00,0xF6
3.576515400000000,109,0x00,0xF6
3.576527440000000,109,0x00,0xF5
3.576539480000000,109,0x00,0xF7
3.576551500000000,109,0x00,0xF7
3.576563540000000,109,0x00,0xF7
3.576575580000000,109,0x00,0xF8
3.576587600000000,109,0x00,0xF7
3.576599640000000,109,0x00,0xF7
3.576611660000000,109,0x00,0xF7
3.576623700000000,109,0x00,0xF7
3.576635740000000,109,0x00,0xF7
3.576647760000000,109,0x00,0xF6
3.576659800000000,109,0x00,0xF7
3.576671840000000,109,0x00,0xF6
3.576683860000000,109,0x00,0xF6
3.576695900000000,109,0x00,0xF5
3.576707940000000,109,0x00,0xF4
3.576719960000000,109,0x00,0xF6
3.576732000000000,109,0x00,0xF5
3.576744020000000,109,0x00,0xF4
3.576756060000000,109,0x00,0xF4
3.576768100000000,109,0x00,0xF3
3.576780120000000,109,0x00,0xF3
3.576792160000000,109,0x00,0xF1
3.576804180000000,109,0x00,0xF1
3.576816220000000,109,0x00,0xF1
3.576828260000000,109,0x00,0xEF
3.576840280000000,109,0x00,0xEF
3.576852320000000,109,0x00,0xED
3.576864360000000,109,0x00,0xEC
3.576876380000000,109,0x00,0xEB
3.576888420000000,109,0x00,0xE9
3.576900460000000,109,0x00,0xE8
3.576912480000000,109,0x00,0xE8
3.576924520000000,109,0x00,0xE5
3.576936560000000,109,0x00,0xE3
3.576948580000000,109,0x00,0xE1
3.576960620000000,109,0x00,0xDE
3.576972640000000,109,0x00,0xDC
3.576984680000000,109,0x00,0xDA
3.576996720000000,109,0x00,0xD7
3.577008760000000,109,0x00,0xD6
3.577020800000000,109,0x00,0xD3
3.577032820000000,109,0x00,0xCF
3.577044860000000,109,0x00,0xCB
3.577056880000000,109,0x00,0xC7
3.577072260000000,109,0x00,0xC3
3.577084280000000,109,0x00,0xC0
3.577096320000000,109,0x00,0xBD
3.577108360000000,109,0x00,0xBA
3.577120380000000,109,0x00,0xB6
3.577132420000000,109,0x00,0xB2
3.577144460000000,109,0x00,0xAD
3.577156480000000,109,0x00,0xA9
3.577168520000000,109,0x00,0xA0
3.577180560000000,109,0x00,0x99
3.577192600000000,109,0x00,0x94
3.577204620000000,109,0x00,0x8C
3.577216660000000,109,0x00,0x86
3.577228700000000,109,0x00,0x81
3.577240720000000,109,0x00,0x80
3.577252760000000,109,0x00,0x80
3.577264780000000,109,0x00,0x7F
3.577276820000000,109,0x00,0x81
3.577288860000000,109,0x00,0x81
3.577300880000000,109,0x00,0x81
3.577312920000000,109,0x00,0x7E
3.577324940000000,109,0x00,0x7B
3.577336980000000,109,0x00,0x78
3.577349020000000,109,0x00,0x75
3.577361040000000,109,0x00,0x72
3.577373080000000,109,0x00,0x76
3.577385100000000,109,0x00,0x7A
3.577397140000000,109,0x00,0x7B
3.577409160000000,109,0x00,0x7D
3.577421200000000,109,0x00,0x7A
3.577433240000000,109,0x00,0x78
3.577445260000000,109,0x00,0x7B
3.577457300000000,109,0x00,0x7E
3.577469320000000,109,0x00,0x87
3.577481360000000,109,0x00,0x90
3.577493400000000,109,0x00,0x96
3.577505420000000,109,0x00,0x9D
3.577517460000000,109,0x00,0xA2
3.577529500000000,109,0x00,0xA1
3.577541520000000,109,0x00,0x9D
3.577553560000000,109,0x00,0x97
3.577565580000000,109,0x00,0x96
3.577577620000000,109,0x00,0x93
3.577589640000000,109,0x00,0x93
3.577601680000000,109,0x00,0x8F
3.577613720000000,109,0x00,0x88
3.577625740000000,109,0x00,0x7F
3.577637780000000,109,0x00,0x7A
3.577649820000000,109,0x00,0x74
3.577661840000000,109,0x00,0x76
3.577673880000000,109,0x00,0x7A
3.577685920000000,109,0x00,0x7E
3.577697940000000,109,0x00,0x83
3.577709980000000,109,0x00,0x8C
3.577722020000000,109,0x00,0x93
3.577734040000000,109,0x00,0x9B
3.577746080000000,109,0x00,0x9C
3.577758100000000,109,0x00,0x9E
3.577770140000000,109,0x00,0xA2
3.577782180000000,109,0x00,0xA2
3.577794220000000,109,0x00,0x9F
3.577806240000000,109,0x00,0x9B
3.577818280000000,109,0x00,0x98
3.577830300000000,109,0x00,0x94
3.577842340000000,109,0x00,0x8E
3.577854380000000,109,0x00,0x8F
3.577866420000000,109,0x00,0x92
3.577878440000000,109,0x00,0x94
3.577890480000000,109,0x00,0x93
3.577902500000000,109,0x00,0x94
3.577914540000000,109,0x00,0x93
3.577926580000000,109,0x00,0x94
3.577938600000000,109,0x00,0x94
3.577950640000000,109,0x00,0x96
3.577962660000000,109,0x00,0x9C
3.577974700000000,109,0x00,0xA2
3.577986720000000,109,0x00,0xA6
3.577998760000000,109,0x00,0xA8
3.578010780000000,109,0x00,0xAA
3.578022800000000,109,0x00,0xAA
3.578034840000000,109,0x00,0xA5
3.578046860000000,109,0x00,0xA1
3.578058900000000,109,0x00,0xA0
3.578070920000000,109,0x00,0x9E
3.578088260000000,109,0x00,0x9C
3.578100280000000,109,0x00,0x99
3.578112320000000,109,0x00,0x9A
3.578124340000000,109,0x00,0x98
3.578136360000000,109,0x00,0x95
3.578148400000000,109,0x00,0x95
3.578160420000000,109,0x00,0x97
3.578172440000000,109,0x00,0x98
3.578184480000000,109,0x00,0x99
3.578196520000000,109,0x00,0x9A
3.578208540000000,109,0x00,0x9C
3.578220580000000,109,0x00,0x9F
3.578232600000000,109,0x00,0xA2
3.578244640000000,109,0x00,0xA8
3.578256680000000,109,0x00,0xA8
3.578268700000000,109,0x00,0xA8
3.578280740000000,109,0x00,0xA3
3.578292760000000,109,0x00,0x9F
3.578304800000000,109,0x00,0x9D
3.578316840000000,109,0x00,0x9A
3.578328860000000,109,0x00,0x9A
3.578340900000000,109,0x00,0x9B
3.578352940000000,109,0x00,0x9C
3.578364960000000,109,0x00,0x9A
3.578377000000000,109,0x00,0x96
3.578389040000000,109,0x00,0x9A
3.578401060000000,109,0x00,0x9D
3.578413100000000,109,0x00,0xA2
3.578425120000000,109,0x00,0xA6
3.578437160000000,109,0x00,0xAD
3.578449200000000,109,0x00,0xB4
3.578461220000000,109,0x00,0xB9
3.578473260000000,109,0x00,0xBE
3.578485300000000,109,0x00,0xC3
3.578497320000000,109,0x00,0xC9
3.578509340000000,109,0x00,0xCD
3.578521380000000,109,0x00,0xCF
3.578533420000000,109,0x00,0xD1
3.578545440000000,109,0x00,0xD3
3.578557480000000,109,0x00,0xD6
3.578569500000000,109,0x00,0xD8
3.578581540000000,109,0x00,0xD9
3.578593560000000,109,0x00,0xDC
3.578605600000000,109,0x00,0xDE
3.578617640000000,109,0x00,0xE2
3.578629660000000,109,0x00,0xE3
3.578641700000000,109,0x00,0xE6
3.578653720000000,109,0x00,0xE8
3.578665760000000,109,0x00,0xEA
3.578677780000000,109,0x00,0xEC
3.578689820000000,109,0x00,0xED
3.578701840000000,109,0x00,0xEE
3.578713880000000,109,0x00,0xF0
3.578725900000000,109,0x00,0xF0
3.578737920000000,109,0x00,0xF2
3.578749960000000,109,0x00,0xF3
3.578761980000000,109,0x00,0xF3
3.578774020000000,109,0x00,0xF5
3.578786040000000,109,0x00,0xF5
3.578798080000000,109,0x00,0xF6
3.578810120000000,109,0x00,0xF5
3.578822140000000,109,0x00,0xF6
3.578834180000000,109,0x00,0xF7
3.578846200000000,109,0x00,0xF7
3.578858240000000,109,0x00,0xF9
3.578870280000000,109,0x00,0xF8
3.578882300000000,109,0x00,0xF9
3.578894340000000,109,0x00,0xF9
3.578906360000000,109,0x00,0xF8
3.578918400000000,109,0x00,0xF8
3.578930420000000,109,0x00,0xF8
3.578942460000000,109,0x00,0xF8
3.578954500000000,109,0x00,0xF8
3.578966520000000,109,0x00,0xF8
3.578978560000000,109,0x00,0xF8
3.578990580000000,109,0x00,0xF8
3.579002620000000,109,0x00,0xF7
3.579014660000000,109,0x00,0xF5
3.579026680000000,109,0x00,0xF5
3.579038720000000,109,0x00,0xF5
3.579050740000000,109,0x00,0xF3
3.579062780000000,109,0x00,0xF3
3.579074820000000,109,0x00,0xF4
3.579086840000000,109,0x00,0xF3
3.579103680000000,109,0x00,0xF2
3.579115720000000,109,0x00,0xEE
3.579127740000000,109,0x00,0xF0
3.579139780000000,109,0x00,0xEF
3.579151800000000,109,0x00,0xEE
3.579163840000000,109,0x00,0xED
3.579175860000000,109,0x00,0xEB
3.579187880000000,109,0x00,0xEB
3.579199920000000,109,0x00,0xE8
3.579211940000000,109,0x00,0xE8
3.579223980000000,109,0x00,0xE6
3.579236000000000,109,0x00,0xE4
3.579248040000000,109,0x00,0xE2
3.579260060000000,109,0x00,0xDF
3.579272100000000,109,0x00,0xDD
3.579284140000000,109,0x00,0xDA
3.579296160000000,109,0x00,0xD8
3.579308200000000,109,0x00,0xD5
3.579320220000000,109,0x00,0xD4
3.579332260000000,109,0x00,0xD1
3.579344280000000,109,0x00,0xCE
3.579356320000000,109,0x00,0xCB
3.579368360000000,109,0x00,0xC8
3.579380380000000,109,0x00,0xC4
3.579392420000000,109,0x00,0xBF
3.579404440000000,109,0x00,0xBD
3.579416480000000,109,0x00,0xBB
3.579428500000000,109,0x00,0xB8
3.579440540000000,109,0x00,0xB5
3.579452560000000,109,0x00,0xAF
3.579464600000000,109,0x00,0xAC
3.579476620000000,109,0x00,0xA7
3.579488660000000,109,0x00,0xA1
3.579500700000000,109,0x00,0x9B
3.579512720000000,109,0x00,0x98
3.579524760000000,109,0x00,0x93
3.579536780000000,109,0x00,0x8E
3.579548820000000,109,0x00,0x8A
3.579560860000000,109,0x00,0x86
3.579572880000000,109,0x00,0x84
3.579584900000000,109,0x00,0x80
3.579596940000000,109,0x00,0x7D
3.579608960000000,109,0x00,0x7E
3.579621000000000,109,0x00,0x7C
3.579633020000000,109,0x00,0x7A
3.579645060000000,109,0x00,0x78
3.579657100000000,109,0x00,0x77
3.579669120000000,109,0x00,0x76
3.579681160000000,109,0x00,0x72
3.579693180000000,109,0x00,0x72
3.579705220000000,109,0x00,0x73
3.579717260000000,109,0x00,0x73
3.579729280000000,109,0x00,0x71
3.579741300000000,109,0x00,0x6D
3.579753340000000,109,0x00,0x6A
3.579765380000000,109,0x00,0x6B
3.579777400000000,109,0x00,0x6F
3.579789420000000,109,0x00,0x76
3.579801460000000,109,0x00,0x80
3.579813480000000,109,0x00,0x8A
3.579825520000000,109,0x00,0x91
3.579837560000000,109,0x00,0x98
3.579849580000000,109,0x00,0x9D
3.579861620000000,109,0x00,0x9D
3.579873640000000,109,0x00,0x9A
3.579885680000000,109,0x00,0x9B
3.579897720000000,109,0x00,0x99
3.579909740000000,109,0x00,0x9B
3.579921780000000,109,0x00,0x99
3.579933800000000,109,0x00,0x92
3.579945840000000,109,0x00,0x8A
3.579957880000000,109,0x00,0x7F
3.579969900000000,109,0x00,0x73
3.579981940000000,109,0x00,0x73
3.579993980000000,109,0x00,0x78
3.580006000000000,109,0x00,0x76
3.580018040000000,109,0x00,0x79
3.580030060000000,109,0x00,0x7F
3.580042100000000,109,0x00,0x87
3.580054120000000,109,0x00,0x8C
3.580066160000000,109,0x00,0x91
3.580078200000000,109,0x00,0x94
3.580090220000000,109,0x00,0x9A
3.580107940000000,109,0x00,0x9C
3.580119980000000,109,0x00,0x9A
3.580132000000000,109,0x00,0x98
3.580144040000000,109,0x00,0x95
3.580156080000000,109,0x00,0x91
3.580168100000000,109,0x00,0x8D
3.580180140000000,109,0x00,0x8C
3.580192160000000,109,0x00,0x8D
3.580204200000000,109,0x00,0x8C
3.580216220000000,109,0x00,0x88
3.580228260000000,109,0x00,0x8A
3.580240300000000,109,0x00,0x86
3.580252320000000,109,0x00,0x87
3.580264360000000,109,0x00,0x88
3.580276380000000,109,0x00,0x87
3.580288420000000,109,0x00,0x8D
3.580300460000000,109,0x00,0x93
3.580312480000000,109,0x00,0x97
3.580324520000000,109,0x00,0x9D
3.580336540000000,109,0x00,0xA1
3.580348580000000,109,0x00,0xA3
3.580360600000000,109,0x00,0xA1
3.580372640000000,109,0x00,0x9E
3.580384680000000,109,0x00,0x9E
3.580396700000000,109,0x00,0x9D
3.580408740000000,109,0x00,0x99
3.580420760000000,109,0x00,0x97
3.580432800000000,109,0x00,0x93
3.580444840000000,109,0x00,0x8F
3.580456860000000,109,0x00,0x8A
3.580468900000000,109,0x00,0x8C
3.580480920000000,109,0x00,0x8C
3.580492960000000,109,0x00,0x8C
3.580505000000000,109,0x00,0x8F
3.580517020000000,109,0x00,0x8D
3.580529040000000,109,0x00,0x8D
3.580541080000000,109,0x00,0x91
3.580553120000000,109,0x00,0x97
3.580565140000000,109,0x00,0x9E
3.580577160000000,109,0x00,0xA2
3.580589200000000,109,0x00,0xA4
3.580601240000000,109,0x00,0x9F
3.580613260000000,109,0x00,0x9D
3.580625300000000,109,0x00,0x9B
3.580637340000000,109,0x00,0x9A
3.580649360000000,109,0x00,0x99
3.580661400000000,109,0x00,0x9A
3.580673420000000,109,0x00,0x97
3.580685460000000,109,0x00,0x94
3.580697500000000,109,0x00,0x91
3.580709520000000,109,0x00,0x92
3.580721540000000,109,0x00,0x94
3.580733580000000,109,0x00,0x99
3.580745620000000,109,0x00,0x9C
3.580757640000000,109,0x00,0xA2
3.580769680000000,109,0x00,0xA9
3.580781700000000,109,0x00,0xAF
3.580793740000000,109,0x00,0xB3
3.580805780000000,109,0x00,0xBA
3.580817800000000,109,0x00,0xBF
3.580829840000000,109,0x00,0xC3
3.580841860000000,109,0x00,0xC7
3.580853900000000,109,0x00,0xC8
3.580865920000000,109,0x00,0xCC
3.580877960000000,109,0x00,0xCE
3.580889980000000,109,0x00,0xD3
3.580902020000000,109,0x00,0xD5
3.580914060000000,109,0x00,0xD7
3.580926080000000,109,0x00,0xDA
3.580938120000000,109,0x00,0xDC
3.580950140000000,109,0x00,0xE0
3.580962180000000,109,0x00,0xE2
3.580974220000000,109,0x00,0xE5
3.580986240000000,109,0x00,0xE7
3.580998280000000,109,0x00,0xE9
3.581010300000000,109,0x00,0xEC
3.581022340000000,109,0x00,0xEC
3.581034360000000,109,0x00,0xEE
3.581046400000000,109,0x00,0xEF
3.581058440000000,109,0x00,0xF1
3.581070460000000,109,0x00,0xF2
3.581082480000000,109,0x00,0xF2
3.581094520000000,109,0x00,0xF3
3.581106560000000,109,0x00,0xF4
3.581125360000000,109,0x00,0xF4
3.581137400000000,109,0x00,0xF5
3.581149440000000,109,0x00,0xF5
3.581161460000000,109,0x00,0xF7
3.581173500000000,109,0x00,0xF7
3.581185520000000,109,0x00,0xF7
3.581197560000000,109,0x00,0xF8
3.581209580000000,109,0x00,0xF8
3.581221620000000,109,0x00,0xF7
3.581233640000000,109,0x00,0xF8
3.581245680000000,109,0x00,0xF7
3.581257720000000,109,0x00,0xF9
3.581269740000000,109,0x00,0xF8
3.581281780000000,109,0x00,0xF8
3.581293800000000,109,0x00,0xF8
3.581305820000000,109,0x00,0xF8
3.581317860000000,109,0x00,0xF7
3.581329880000000,109,0x00,0xF7
3.581341920000000,109,0x00,0xF4
3.581353940000000,109,0x00,0xF4
3.581365980000000,109,0x00,0xF4
3.581378000000000,109,0x00,0xF3
3.581390040000000,109,0x00,0xF3
3.581402060000000,109,0x00,0xF2
3.581414100000000,109,0x00,0xF1
3.581426140000000,109,0x00,0xF1
3.581438160000000,109,0x00,0xF0
3.581450200000000,109,0x00,0xF0
3.581462220000000,109,0x00,0xEE
3.581474260000000,109,0x00,0xED
3.581486280000000,109,0x00,0xEC
3.581498320000000,109,0x00,0xEA
3.581510360000000,109,0x00,0xE8
3.581522380000000,109,0x00,0xE6
3.581534420000000,109,0x00,0xE4
3.581546440000000,109,0x00,0xE2
3.581558480000000,109,0x00,0xE1
3.581570500000000,109,0x00,0xDF
3.581582520000000,109,0x00,0xDC
3.581594560000000,109,0x00,0xD9
3.581606580000000,109,0x00,0xD6
3.581618600000000,109,0x00,0xD2
3.581630640000000,109,0x00,0xCF
3.581642660000000,109,0x00,0xCE
3.581654700000000,109,0x00,0xCB
3.581666720000000,109,0x00,0xC6
3.581678760000000,109,0x00,0xC4
3.581690800000000,109,0x00,0xC2
3.581702820000000,109,0x00,0xBF
3.581714860000000,109,0x00,0xBB
3.581726880000000,109,0x00,0xB8
3.581738920000000,109,0x00,0xB6
3.581750960000000,109,0x00,0xB2
3.581762980000000,109,0x00,0xB0
3.581775020000000,109,0x00,0xAB
3.581787040000000,109,0x00,0xA5
3.581799080000000,109,0x00,0xA2
3.581811100000000,109,0x00,0x9B
3.581823140000000,109,0x00,0x97
3.581835160000000,109,0x00,0x97
3.581847200000000,109,0x00,0x96
3.581859220000000,109,0x00,0x93
3.581871260000000,109,0x00,0x92
3.581883300000000,109,0x00,0x8F
3.581895320000000,109,0x00,0x8D
3.581907360000000,109,0x00,0x85
3.581919380000000,109,0x00,0x81
3.581931420000000,109,0x00,0x7F
3.581943460000000,109,0x00,0x7C
3.581955480000000,109,0x00,0x7B
3.581967520000000,109,0x00,0x7B
3.581979540000000,109,0x00,0x7A
3.581991580000000,109,0x00,0x7B
3.582003620000000,109,0x00,0x76
3.582015640000000,109,0x00,0x72
3.582027680000000,109,0x00,0x72
3.582039720000000,109,0x00,0x6E
3.582051740000000,109,0x00,0x6A
3.582063780000000,109,0x00,0x66
3.582075800000000,109,0x00,0x62
3.582087840000000,109,0x00,0x63
3.582099880000000,109,0x00,0x65
3.582111900000000,109,0x00,0x6B
3.582129240000000,109,0x00,0x74
3.582141280000000,109,0x00,0x7C
3.582153320000000,109,0x00,0x83
3.582165340000000,109,0x00,0x8A
3.582177380000000,109,0x00,0x90
3.582189400000000,109,0x00,0x94
3.582201440000000,109,0x00,0x93
3.582213460000000,109,0x00,0x97
3.582225500000000,109,0x00,0x9A
3.582237520000000,109,0x00,0x9E
3.582249560000000,109,0x00,0xA0
3.582261600000000,109,0x00,0x9D
3.582273620000000,109,0x00,0x93
3.582285660000000,109,0x00,0x89
3.582297680000000,109,0x00,0x7E
3.582309720000000,109,0x00,0x7A
3.582321740000000,109,0x00,0x77
3.582333780000000,109,0x00,0x74
3.582345800000000,109,0x00,0x74
3.582357840000000,109,0x00,0x78
3.582369880000000,109,0x00,0x7E
3.582381900000000,109,0x00,0x81
3.582393940000000,109,0x00,0x84
3.582405960000000,109,0x00,0x88
3.582418000000000,109,0x00,0x8F
3.582430020000000,109,0x00,0x97
3.582442060000000,109,0x00,0x96
3.582454080000000,109,0x00,0x96
3.582466120000000,109,0x00,0x96
3.582478140000000,109,0x00,0x94
3.582490180000000,109,0x00,0x90
3.582502200000000,109,0x00,0x8D
3.582514240000000,109,0x00,0x8D
3.582526260000000,109,0x00,0x8B
3.582538300000000,109,0x00,0x87
3.582550340000000,109,0x00,0x83
3.582562360000000,109,0x00,0x7F
3.582574400000000,109,0x00,0x7F
3.582586420000000,109,0x00,0x7F
3.582598460000000,109,0x00,0x80
3.582610480000000,109,0x00,0x82
3.582622520000000,109,0x00,0x86
3.582634540000000,109,0x00,0x8A
3.582646580000000,109,0x00,0x8D
3.582658620000000,109,0x00,0x91
3.582670640000000,109,0x00,0x96
3.582682680000000,109,0x00,0x95
3.582694700000000,109,0x00,0x96
3.582706740000000,109,0x00,0x9A
3.582718760000000,109,0x00,0x9A
3.582730800000000,109,0x00,0x99
3.582742840000000,109,0x00,0x95
3.582754860000000,109,0x00,0x91
3.582766900000000,109,0x00,0x8C
3.582778920000000,109,0x00,0x85
3.582790960000000,109,0x00,0x83
3.582802980000000,109,0x00,0x84
3.582815020000000,109,0x00,0x84
3.582827040000000,109,0x00,0x86
3.582839080000000,109,0x00,0x85
3.582851120000000,109,0x00,0x83
3.582863140000000,109,0x00,0x86
3.582875180000000,109,0x00,0x8B
3.582887200000000,109,0x00,0x94
3.582899240000000,109,0x00,0x9B
3.582911260000000,109,0x00,0x9D
3.582923300000000,109,0x00,0x9A
3.582935320000000,109,0x00,0x99
3.582947360000000,109,0x00,0x9B
3.582959400000000,109,0x00,0x9B
3.582971420000000,109,0x00,0x9A
3.582983460000000,109,0x00,0x9B
3.582995480000000,109,0x00,0x98
3.583007520000000,109,0x00,0x92
3.583019540000000,109,0x00,0x8E
3.583031580000000,109,0x00,0x8F
3.583043600000000,109,0x00,0x91
3.583055640000000,109,0x00,0x92
3.583067660000000,109,0x00,0x95
3.583079700000000,109,0x00,0x9B
3.583091740000000,109,0x00,0xA2
3.583103760000000,109,0x00,0xA6
3.583115800000000,109,0x00,0xA9
3.583127820000000,109,0x00,0xAE
3.583143340000000,109,0x00,0xB5
3.583155360000000,109,0x00,0xB9
3.583167400000000,109,0x00,0xBD
3.583179420000000,109,0x00,0xC1
3.583191460000000,109,0x00,0xC4
3.583203500000000,109,0x00,0xC9
3.583215520000000,109,0x00,0xCC
3.583227560000000,109,0x00,0xCF
3.583239580000000,109,0x00,0xD3
3.583251620000000,109,0x00,0xD7
3.583263640000000,109,0x00,0xD9
3.583275680000000,109,0x00,0xDD
3.583287720000000,109,0x00,0xE0
3.583299740000000,109,0x00,0xE3
3.583311780000000,109,0x00,0xE6
3.583323800000000,109,0x00,0xE8
3.583335840000000,109,0x00,0xEA
3.583347860000000,109,0x00,0xEC
3.583359900000000,109,0x00,0xEE
3.583371920000000,109,0x00,0xEE
3.583383960000000,109,0x00,0xEF
3.583396000000000,109,0x00,0xF1
3.583408020000000,109,0x00,0xF2
3.583420060000000,109,0x00,0xF3
3.583432080000000,109,0x00,0xF4
3.583444120000000,109,0x00,0xF4
3.583456140000000,109,0x00,0xF5
3.583468180000000,109,0x00,0xF6
3.583480200000000,109,0x00,0xF5
3.583492240000000,109,0x00,0xF6
3.583504260000000,109,0x00,0xF7
3.583516300000000,109,0x00,0xF8
3.583528340000000,109,0x00,0xF8
3.583540360000000,109,0x00,0xF8
3.583552400000000,109,0x00,0xF8
3.583564420000000,109,0x00,0xF7
3.583576460000000,109,0x00,0xF9
3.583588480000000,109,0x00,0xF8
3.583600520000000,109,0x00,0xF7
3.583612540000000,109,0x00,0xF8
3.583624580000000,109,0x00,0xF8
3.583636600000000,109,0x00,0xF8
3.583648620000000,109,0x00,0xF7
3.583660660000000,109,0x00,0xF3
3.583672680000000,109,0x00,0xF4
3.583684720000000,109,0x00,0xF4
3.583696740000000,109,0x00,0xF2
3.583708780000000,109,0x00,0xF3
3.583720800000000,109,0x00,0xF3
3.583732840000000,109,0x00,0xF0
3.583744860000000,109,0x00,0xEF
3.583756900000000,109,0x00,0xED
3.583768920000000,109,0x00,0xEE
3.583780960000000,109,0x00,0xEC
3.583793000000000,109,0x00,0xEA
3.583805020000000,109,0x00,0xE8
3.583817060000000,109,0x00,0xE7
3.583829080000000,109,0x00,0xE6
3.583841120000000,109,0x00,0xE2
3.583853140000000,109,0x00,0xE2
3.583865180000000,109,0x00,0xDE
3.583877200000000,109,0x00,0xDD
3.583889240000000,109,0x00,0xDA
3.583901260000000,109,0x00,0xD7
3.583913300000000,109,0x00,0xD4
3.583925320000000,109,0x00,0xD1
3.583937360000000,109,0x00,0xCB
3.583949400000000,109,0x00,0xC8
3.583961420000000,109,0x00,0xC3
3.583973440000000,109,0x00,0xC0
3.583985480000000,109,0x00,0xBC
3.583997520000000,109,0x00,0xB9
3.584009540000000,109,0x00,0xB8
3.584021580000000,109,0x00,0xB4
3.584033600000000,109,0x00,0xB0
3.584045640000000,109,0x00,0xAF
3.584057680000000,109,0x00,0xAB
3.584069700000000,109,0x00,0xA8
3.584081740000000,109,0x00,0xA3
3.584093760000000,109,0x00,0x9D
3.584105800000000,109,0x00,0x97
3.584117820000000,109,0x00,0x94
3.584129840000000,109,0x00,0x8D
3.584141880000000,109,0x00,0x8C
3.584159060000000,109,0x00,0x8D
3.584171100000000,109,0x00,0x8E
3.584183120000000,109,0x00,0x91
3.584195160000000,109,0x00,0x93
3.584207180000000,109,0x00,0x94
3.584219220000000,109,0x00,0x93
3.584231240000000,109,0x00,0x90
3.584243280000000,109,0x00,0x8D
3.584255300000000,109,0x00,0x8B
3.584267340000000,109,0x00,0x87
3.584279380000000,109,0x00,0x84
3.584291400000000,109,0x00,0x84
3.584303440000000,109,0x00,0x85
3.584315460000000,109,0x00,0x84
3.584327500000000,109,0x00,0x7D
3.584339520000000,109,0x00,0x79
3.584351560000000,109,0x00,0x75
3.584363600000000,109,0x00,0x70
3.584375620000000,109,0x00,0x6B
3.584387660000000,109,0x00,0x68
3.584399680000000,109,0x00,0x66
3.584411720000000,109,0x00,0x66
3.584423740000000,109,0x00,0x67
3.584435780000000,109,0x00,0x6B
3.584447800000000,109,0x00,0x71
3.584459840000000,109,0x00,0x75
3.584471860000000,109,0x00,0x78
3.584483900000000,109,0x00,0x7C
3.584495920000000,109,0x00,0x81
3.584507960000000,109,0x00,0x84
3.584520000000000,109,0x00,0x86
3.584532040000000,109,0x00,0x89
3.584544060000000,109,0x00,0x8F
3.584556100000000,109,0x00,0x99
3.584568120000000,109,0x00,0x9E
3.584580160000000,109,0x00,0x9E
3.584592200000000,109,0x00,0x9D
3.584604220000000,109,0x00,0x94
3.584616260000000,109,0x00,0x8B
3.584628300000000,109,0x00,0x83
3.584640320000000,109,0x00,0x7F
3.584652360000000,109,0x00,0x78
3.584664380000000,109,0x00,0x75
3.584676420000000,109,0x00,0x78
3.584688460000000,109,0x00,0x7B
3.584700480000000,109,0x00,0x7C
3.584712520000000,109,0x00,0x7C
3.584724560000000,109,0x00,0x7E
3.584736580000000,109,0x00,0x87
3.584748620000000,109,0x00,0x8E
3.584760640000000,109,0x00,0x90
3.584772680000000,109,0x00,0x93
3.584784700000000,109,0x00,0x94
3.584796740000000,109,0x00,0x95
3.584808780000000,109,0x00,0x94
3.584820800000000,109,0x00,0x93
3.584832840000000,109,0x00,0x91
3.584844860000000,109,0x00,0x8E
3.584856900000000,109,0x00,0x88
3.584868920000000,109,0x00,0x83
3.584880960000000,109,0x00,0x7E
3.584892980000000,109,0x00,0x7D
3.584905020000000,109,0x00,0x7D
3.584917040000000,109,0x00,0x7D
3.584929080000000,109,0x00,0x7A
3.584941100000000,109,0x00,0x7B
3.584953140000000,109,0x00,0x7D
3.584965160000000,109,0x00,0x80
3.584977200000000,109,0x00,0x83
3.584989240000000,109,0x00,0x85
3.585001260000000,109,0x00,0x84
3.585013300000000,109,0x00,0x89
3.585025340000000,109,0x00,0x90
3.585037360000000,109,0x00,0x95
3.585049400000000,109,0x00,0x96
3.585061420000000,109,0x00,0x95
3.585073460000000,109,0x00,0x94
3.585085500000000,109,0x00,0x8E
3.585097520000000,109,0x00,0x84
3.585109560000000,109,0x00,0x7E
3.585121580000000,109,0x00,0x7E
3.585133620000000,109,0x00,0x7F
3.585145640000000,109,0x00,0x81
3.585162720000000,109,0x00,0x7F
3.585174760000000,109,0x00,0x7E
3.585186780000000,109,0x00,0x7D
3.585198820000000,109,0x00,0x81
3.585210840000000,109,0x00,0x88
3.585222880000000,109,0x00,0x91
3.585234920000000,109,0x00,0x93
3.585246940000000,109,0x00,0x92
3.585258980000000,109,0x00,0x90
3.585271000000000,109,0x00,0x93
3.585283040000000,109,0x00,0x97
3.585295060000000,109,0x00,0x99
3.585307100000000,109,0x00,0x99
3.585319120000000,109,0x00,0x99
3.585331160000000,109,0x00,0x95
3.585343180000000,109,0x00,0x92
3.585355220000000,109,0x00,0x90
3.585367260000000,109,0x00,0x90
3.585379280000000,109,0x00,0x93
3.585391320000000,109,0x00,0x90
3.585403340000000,109,0x00,0x93
3.585415380000000,109,0x00,0x99
3.585427420000000,109,0x00,0x9D
3.585439440000000,109,0x00,0xA0
3.585451480000000,109,0x00,0xA4
3.585463500000000,109,0x00,0xAA
3.585475540000000,109,0x00,0xAF
3.585487580000000,109,0x00,0xB4
3.585499600000000,109,0x00,0xB6
3.585511640000000,109,0x00,0xBA
3.585523660000000,109,0x00,0xBE
3.585535700000000,109,0x00,0xC4
3.585547720000000,109,0x00,0xC9
3.585559760000000,109,0x00,0xCB
3.585571780000000,109,0x00,0xD2
3.585583820000000,109,0x00,0xD6
3.585595860000000,109,0x00,0xD9
3.585607880000000,109,0x00,0xDE
3.585619920000000,109,0x00,0xE0
3.585631960000000,109,0x00,0xE3
3.585643980000000,109,0x00,0xE6
3.585656020000000,109,0x00,0xE9
3.585668040000000,109,0x00,0xEA
3.585680080000000,109,0x00,0xEB
3.585692120000000,109,0x00,0xED
3.585704140000000,109,0x00,0xEF
3.585716180000000,109,0x00,0xF1
3.585728200000000,109,0x00,0xF2
3.585740240000000,109,0x00,0xF2
3.585752280000000,109,0x00,0xF5
3.585764300000000,109,0x00,0xF4
3.585776320000000,109,0x00,0xF5
3.585788360000000,109,0x00,0xF5
3.585800380000000,109,0x00,0xF5
3.585812400000000,109,0x00,0xF7
3.585824440000000,109,0x00,0xF7
3.585836460000000,109,0x00,0xF8
3.585848500000000,109,0x00,0xF7
3.585860520000000,109,0x00,0xF8
3.585872560000000,109,0x00,0xF8
3.585884600000000,109,0x00,0xF8
3.585896620000000,109,0x00,0xF8
3.585908660000000,109,0x00,0xF8
3.585920700000000,109,0x00,0xFA
3.585932720000000,109,0x00,0xF8
3.585944760000000,109,0x00,0xF9
3.585956780000000,109,0x00,0xF8
3.585968820000000,109,0x00,0xF8
3.585980840000000,109,0x00,0xF3
3.585992880000000,109,0x00,0xF3
3.586004900000000,109,0x00,0xF4
3.586016940000000,109,0x00,0xF2
3.586028960000000,109,0x00,0xF1
3.586040980000000,109,0x00,0xF1
3.586053020000000,109,0x00,0xF0
3.586065060000000,109,0x00,0xEE
3.586077080000000,109,0x00,0xEC
3.586089120000000,109,0x00,0xEB
3.586101140000000,109,0x00,0xE9
3.586113180000000,109,0x00,0xE8
3.586125200000000,109,0x00,0xE8
3.586137240000000,109,0x00,0xE3
3.586149260000000,109,0x00,0xE3
3.586161300000000,109,0x00,0xDF
3.586178840000000,109,0x00,0xDD
3.586190860000000,109,0x00,0xDA
3.586202900000000,109,0x00,0xD8
3.586214920000000,109,0x00,0xD3
3.586226940000000,109,0x00,0xCF
3.586238980000000,109,0x00,0xCB
3.586251000000000,109,0x00,0xC7
3.586263020000000,109,0x00,0xBF
3.586275060000000,109,0x00,0xB9
3.586287080000000,109,0x00,0xB5
3.586299120000000,109,0x00,0xAF
3.586311140000000,109,0x00,0xAB
3.586323180000000,109,0x00,0xA7
3.586335200000000,109,0x00,0xA5
3.586347240000000,109,0x00,0xA4
3.586359280000000,109,0x00,0x9F
3.586371300000000,109,0x00,0x9E
3.586383340000000,109,0x00,0x9B
3.586395360000000,109,0x00,0x97
3.586407400000000,109,0x00,0x92
3.586419420000000,109,0x00,0x8C
3.586431460000000,109,0x00,0x87
3.586443500000000,109,0x00,0x81
3.586455520000000,109,0x00,0x7C
3.586467560000000,109,0x00,0x7A
3.586479600000000,109,0x00,0x7E
3.586491620000000,109,0x00,0x80
3.586503660000000,109,0x00,0x86
3.586515700000000,109,0x00,0x8D
3.586527720000000,109,0x00,0x90
3.586539760000000,109,0x00,0x95
3.586551780000000,109,0x00,0x96
3.586563820000000,109,0x00,0x96
3.586575860000000,109,0x00,0x97
3.586587880000000,109,0x00,0x95
3.586599920000000,109,0x00,0x92
3.586611940000000,109,0x00,0x92
3.586623980000000,109,0x00,0x90
3.586636000000000,109,0x00,0x90
3.586648040000000,109,0x00,0x89
3.586660060000000,109,0x00,0x83
3.586672100000000,109,0x00,0x7D
3.586684120000000,109,0x00,0x78
3.586696160000000,109,0x00,0x76
3.586708200000000,109,0x00,0x73
3.586720220000000,109,0x00,0x71
3.586732260000000,109,0x00,0x73
3.586744300000000,109,0x00,0x72
3.586756320000000,109,0x00,0x72
3.586768360000000,109,0x00,0x78
3.586780380000000,109,0x00,0x77
3.586792420000000,109,0x00,0x75
3.586804440000000,109,0x00,0x75
3.586816480000000,109,0x00,0x77
3.586828500000000,109,0x00,0x77
3.586840540000000,109,0x00,0x77
3.586852580000000,109,0x00,0x77
3.586864600000000,109,0x00,0x7F
3.586876640000000,109,0x00,0x8B
3.586888680000000,109,0x00,0x90
3.586900700000000,109,0x00,0x96
3.586912740000000,109,0x00,0x9C
3.586924760000000,109,0x00,0x9B
3.586936800000000,109,0x00,0x93
3.586948820000000,109,0x00,0x8F
3.586960860000000,109,0x00,0x88
3.586972880000000,109,0x00,0x80
3.586984920000000,109,0x00,0x7B
3.586996940000000,109,0x00,0x7C
3.587008960000000,109,0x00,0x7B
3.587021000000000,109,0x00,0x7B
3.587033020000000,109,0x00,0x7A
3.587045060000000,109,0x00,0x79
3.587057080000000,109,0x00,0x7E
3.587069120000000,109,0x00,0x83
3.587081140000000,109,0x00,0x86
3.587093180000000,109,0x00,0x8B
3.587105220000000,109,0x00,0x8C
3.587117240000000,109,0x00,0x90
3.587129280000000,109,0x00,0x92
3.587141300000000,109,0x00,0x97
3.587153340000000,109,0x00,0x99
3.587165360000000,109,0x00,0x96
3.587177400000000,109,0x00,0x90
3.587196360000000,109,0x00,0x8B
3.587208400000000,109,0x00,0x85
3.587220440000000,109,0x00,0x83
3.587232460000000,109,0x00,0x80
3.587244500000000,109,0x00,0x7B
3.587256540000000,109,0x00,0x7A
3.587268560000000,109,0x00,0x77
3.587280600000000,109,0x00,0x75
3.587292620000000,109,0x00,0x76
3.587304660000000,109,0x00,0x78
3.587316680000000,109,0x00,0x7B
3.587328720000000,109,0x00,0x79
3.587340760000000,109,0x00,0x7A
3.587352780000000,109,0x00,0x85
3.587364820000000,109,0x00,0x8C
3.587376860000000,109,0x00,0x90
3.587388880000000,109,0x00,0x92
3.587400920000000,109,0x00,0x93
3.587412960000000,109,0x00,0x90
3.587424980000000,109,0x00,0x88
3.587437020000000,109,0x00,0x81
3.587449060000000,109,0x00,0x7E
3.587461080000000,109,0x00,0x7D
3.587473120000000,109,0x00,0x7E
3.587485160000000,109,0x00,0x7C
3.587497180000000,109,0x00,0x7A
3.587509220000000,109,0x00,0x7B
3.587521240000000,109,0x00,0x7B
3.587533280000000,109,0x00,0x80
3.587545320000000,109,0x00,0x86
3.587557340000000,109,0x00,0x88
3.587569380000000,109,0x00,0x87
3.587581400000000,109,0x00,0x86
3.587593440000000,109,0x00,0x8A
3.587605480000000,109,0x00,0x90
3.587617520000000,109,0x00,0x93
3.587629540000000,109,0x00,0x97
3.587641580000000,109,0x00,0x99
3.587653620000000,109,0x00,0x98
3.587665640000000,109,0x00,0x95
3.587677680000000,109,0x00,0x94
3.587689700000000,109,0x00,0x93
3.587701740000000,109,0x00,0x93
3.587713780000000,109,0x00,0x90
3.587725800000000,109,0x00,0x91
3.587737840000000,109,0x00,0x97
3.587749860000000,109,0x00,0x99
3.587761900000000,109,0x00,0x9A
3.587773940000000,109,0x00,0x9D
3.587785960000000,109,0x00,0xA2
3.587798000000000,109,0x00,0xA6
3.587810020000000,109,0x00,0xA9
3.587822060000000,109,0x00,0xAC
3.587834100000000,109,0x00,0xB0
3.587846120000000,109,0x00,0xB4
3.587858160000000,109,0x00,0xB9
3.587870180000000,109,0x00,0xC0
3.587882220000000,109,0x00,0xC6
3.587894260000000,109,0x00,0xCD
3.587906300000000,109,0x00,0xD0
3.587918320000000,109,0x00,0xD5
3.587930360000000,109,0x00,0xD9
3.587942400000000,109,0x00,0xDE
3.587954420000000,109,0x00,0xE2
3.587966460000000,109,0x00,0xE4
3.587978500000000,109,0x00,0xE7
3.587990520000000,109,0x00,0xE9
3.588002560000000,109,0x00,0xEA
3.588014600000000,109,0x00,0xEC
3.588026620000000,109,0x00,0xEE
3.588038660000000,109,0x00,0xF0
3.588050680000000,109,0x00,0xF1
3.588062720000000,109,0x00,0xF1
3.588074740000000,109,0x00,0xF2
3.588086780000000,109,0x00,0xF4
3.588098800000000,109,0x00,0xF4
3.588110840000000,109,0x00,0xF5
3.588122880000000,109,0x00,0xF5
3.588134900000000,109,0x00,0xF6
3.588146940000000,109,0x00,0xF7
3.588158960000000,109,0x00,0xF8
3.588171000000000,109,0x00,0xF8
3.588183020000000,109,0x00,0xF8
3.588199840000000,109,0x00,0xF8
3.588211880000000,109,0x00,0xF7
3.588223900000000,109,0x00,0xF8
3.588235940000000,109,0x00,0xF9
3.588247980000000,109,0x00,0xF8
3.588260000000000,109,0x00,0xF9
3.588272040000000,109,0x00,0xF8
3.588284060000000,109,0x00,0xF8
3.588296100000000,109,0x00,0xF7
3.588308120000000,109,0x00,0xF3
3.588320160000000,109,0x00,0xF3
3.588332180000000,109,0x00,0xF2
3.588344220000000,109,0x00,0xF0
3.588356260000000,109,0x00,0xF1
3.588368280000000,109,0x00,0xEF
3.588380320000000,109,0x00,0xEE
3.588392340000000,109,0x00,0xEC
3.588404380000000,109,0x00,0xEA
3.588416420000000,109,0x00,0xE9
3.588428440000000,109,0x00,0xE7
3.588440480000000,109,0x00,0xE6
3.588452520000000,109,0x00,0xE4
3.588464540000000,109,0x00,0xDF
3.588476580000000,109,0x00,0xDD
3.588488600000000,109,0x00,0xDA
3.588500640000000,109,0x00,0xD7
3.588512680000000,109,0x00,0xD4
3.588524700000000,109,0x00,0xD0
3.588536740000000,109,0x00,0xCC
3.588548760000000,109,0x00,0xC7
3.588560800000000,109,0x00,0xC0
3.588572840000000,109,0x00,0xBB
3.588584860000000,109,0x00,0xB2
3.588596900000000,109,0x00,0xAB
3.588608920000000,109,0x00,0xA6
3.588620960000000,109,0x00,0x9F
3.588632980000000,109,0x00,0x98
3.588645020000000,109,0x00,0x92
3.588657040000000,109,0x00,0x91
3.588669080000000,109,0x00,0x91
3.588681100000000,109,0x00,0x8D
3.588693140000000,109,0x00,0x8D
3.588705160000000,109,0x00,0x8B
3.588717200000000,109,0x00,0x87
3.588729240000000,109,0x00,0x83
3.588741260000000,109,0x00,0x7C
3.588753300000000,109,0x00,0x79
3.588765320000000,109,0x00,0x75
3.588777360000000,109,0x00,0x71
3.588789400000000,109,0x00,0x70
3.588801420000000,109,0x00,0x74
3.588813460000000,109,0x00,0x78
3.588825480000000,109,0x00,0x7C
3.588837520000000,109,0x00,0x81
3.588849560000000,109,0x00,0x8A
3.588861580000000,109,0x00,0x8F
3.588873620000000,109,0x00,0x97
3.588885660000000,109,0x00,0x9C
3.588897680000000,109,0x00,0x9F
3.588909720000000,109,0x00,0x9F
3.588921760000000,109,0x00,0x9F
3.588933780000000,109,0x00,0x9F
3.588945820000000,109,0x00,0x9E
3.588957860000000,109,0x00,0x9B
3.588969880000000,109,0x00,0x95
3.588981920000000,109,0x00,0x91
3.588993940000000,109,0x00,0x8B
3.589005980000000,109,0x00,0x86
3.589018020000000,109,0x00,0x83
3.589030060000000,109,0x00,0x82
3.589042080000000,109,0x00,0x82
3.589054120000000,109,0x00,0x85
3.589066140000000,109,0x00,0x84
3.589078180000000,109,0x00,0x82
3.589090200000000,109,0x00,0x83
3.589102240000000,109,0x00,0x7D
3.589114280000000,109,0x00,0x7A
3.589126300000000,109,0x00,0x75
3.589138340000000,109,0x00,0x75
3.589150360000000,109,0x00,0x74
3.589162400000000,109,0x00,0x6F
3.589174440000000,109,0x00,0x6E
3.589186460000000,109,0x00,0x72
3.589198480000000,109,0x00,0x78
3.589213900000000,109,0x00,0x7E
3.589225920000000,109,0x00,0x85
3.589237960000000,109,0x00,0x8F
3.589250000000000,109,0x00,0x94
3.589262020000000,109,0x00,0x95
3.589274060000000,109,0x00,0x96
3.589286080000000,109,0x00,0x93
3.589298120000000,109,0x00,0x8E
3.589310140000000,109,0x00,0x88
3.589322180000000,109,0x00,0x86
3.589334200000000,109,0x00,0x82
3.589346240000000,109,0x00,0x7D
3.589358280000000,109,0x00,0x78
3.589370300000000,109,0x00,0x75
3.589382340000000,109,0x00,0x78
3.589394360000000,109,0x00,0x7B
3.589406400000000,109,0x00,0x7C
3.589418440000000,109,0x00,0x7F
3.589430460000000,109,0x00,0x81
3.589442500000000,109,0x00,0x85
3.589454540000000,109,0x00,0x8C
3.589466560000000,109,0x00,0x92
3.589478580000000,109,0x00,0x97
3.589490620000000,109,0x00,0x98
3.589502660000000,109,0x00,0x94
3.589514680000000,109,0x00,0x92
3.589526720000000,109,0x00,0x8E
3.589538740000000,109,0x00,0x89
3.589550780000000,109,0x00,0x83
3.589562820000000,109,0x00,0x7D
3.589574840000000,109,0x00,0x78
3.589586880000000,109,0x00,0x75
3.589598900000000,109,0x00,0x74
3.589610940000000,109,0x00,0x74
3.589622960000000,109,0x00,0x73
3.589635000000000,109,0x00,0x73
3.589647040000000,109,0x00,0x71
3.589659060000000,109,0x00,0x72
3.589671100000000,109,0x00,0x7B
3.589683120000000,109,0x00,0x82
3.589695160000000,109,0x00,0x86
3.589707180000000,109,0x00,0x8A
3.589719220000000,109,0x00,0x8C
3.589731240000000,109,0x00,0x8F
3.589743280000000,109,0x00,0x8B
3.589755300000000,109,0x00,0x86
3.589767340000000,109,0x00,0x7F
3.589779380000000,109,0x00,0x7F
3.589791400000000,109,0x00,0x7C
3.589803440000000,109,0x00,0x79
3.589815480000000,109,0x00,0x78
3.589827500000000,109,0x00,0x78
3.589839540000000,109,0x00,0x79
3.589851560000000,109,0x00,0x7C
3.589863600000000,109,0x00,0x80
3.589875640000000,109,0x00,0x80
3.589887660000000,109,0x00,0x7F
3.589899700000000,109,0x00,0x7D
3.589911720000000,109,0x00,0x7F
3.589923760000000,109,0x00,0x86
3.589935800000000,109,0x00,0x8A
3.589947820000000,109,0x00,0x90
3.589959860000000,109,0x00,0x95
3.589971880000000,109,0x00,0x95
3.589983920000000,109,0x00,0x95
3.589995940000000,109,0x00,0x93
3.590007980000000,109,0x00,0x93
3.590020000000000,109,0x00,0x94
3.590032040000000,109,0x00,0x92
3.590044060000000,109,0x00,0x92
3.590056100000000,109,0x00,0x94
3.590068140000000,109,0x00,0x95
3.590080160000000,109,0x00,0x96
3.590092200000000,109,0x00,0x96
3.590104240000000,109,0x00,0x9B
3.590116260000000,109,0x00,0x9D
3.590128300000000,109,0x00,0x9F
3.590140340000000,109,0x00,0xA2
3.590152360000000,109,0x00,0xA4
3.590164400000000,109,0x00,0xA7
3.590176420000000,109,0x00,0xAF
3.590188460000000,109,0x00,0xB5
3.590200480000000,109,0x00,0xBD
3.590212520000000,109,0x00,0xC5
3.590229600000000,109,0x00,0xCA
3.590241640000000,109,0x00,0xD0
3.590253660000000,109,0x00,0xD5
3.590265680000000,109,0x00,0xD9
3.590277720000000,109,0x00,0xDD
3.590289740000000,109,0x00,0xE2
3.590301760000000,109,0x00,0xE4
3.590313800000000,109,0x00,0xE6
3.590325820000000,109,0x00,0xE8
3.590337860000000,109,0x00,0xEA
3.590349880000000,109,0x00,0xEC
3.590361920000000,109,0x00,0xEE
3.590373960000000,109,0x00,0xEF
3.590385980000000,109,0x00,0xEF
3.590398020000000,109,0x00,0xF2
3.590410060000000,109,0x00,0xF3
3.590422080000000,109,0x00,0xF3
3.590434120000000,109,0x00,0xF3
3.590446140000000,109,0x00,0xF5
3.590458180000000,109,0x00,0xF5
3.590470220000000,109,0x00,0xF6
3.590482240000000,109,0x00,0xF7
3.590494280000000,109,0x00,0xF7
3.590506300000000,109,0x00,0xF7
3.590518340000000,109,0x00,0xF7
3.590530380000000,109,0x00,0xF7
3.590542400000000,109,0x00,0xF9
3.590554440000000,109,0x00,0xF9
3.590566460000000,109,0x00,0xF8
3.590578500000000,109,0x00,0xF9
3.590590540000000,109,0x00,0xF8
3.590602560000000,109,0x00,0xF8
3.590614600000000,109,0x00,0xF8
3.590626620000000,109,0x00,0xF1
3.590638660000000,109,0x00,0xF1
3.590650700000000,109,0x00,0xF0
3.590662720000000,109,0x00,0xEF
3.590674760000000,109,0x00,0xEE
3.590686780000000,109,0x00,0xED
3.590698820000000,109,0x00,0xEC
3.590710840000000,109,0x00,0xEA
3.590722880000000,109,0x00,0xE8
3.590734920000000,109,0x00,0xE6
3.590746940000000,109,0x00,0xE3
3.590758980000000,109,0x00,0xE0
3.590771020000000,109,0x00,0xDF
3.590783040000000,109,0x00,0xDB
3.590795080000000,109,0x00,0xD8
3.590807100000000,109,0x00,0xD1
3.590819140000000,109,0x00,0xD0
3.590831180000000,109,0x00,0xCD
3.590843200000000,109,0x00,0xC7
3.590855240000000,109,0x00,0xC2
3.590867260000000,109,0x00,0xBB
3.590879300000000,109,0x00,0xB5
3.590891340000000,109,0x00,0xAE
3.590903360000000,109,0x00,0xA5
3.590915400000000,109,0x00,0x9E
3.590927440000000,109,0x00,0x97
3.590939460000000,109,0x00,0x92
3.590951500000000,109,0x00,0x8C
3.590963520000000,109,0x00,0x86
3.590975560000000,109,0x00,0x82
3.590987600000000,109,0x00,0x81
3.590999620000000,109,0x00,0x7F
3.591011660000000,109,0x00,0x82
3.591023680000000,109,0x00,0x83
3.591035720000000,109,0x00,0x7E
3.591047740000000,109,0x00,0x7B
3.591059780000000,109,0x00,0x79
3.591071820000000,109,0x00,0x76
3.591083840000000,109,0x00,0x72
3.591095880000000,109,0x00,0x6F
3.591107900000000,109,0x00,0x6E
3.591119940000000,109,0x00,0x71
3.591131980000000,109,0x00,0x74
3.591144000000000,109,0x00,0x76
3.591156040000000,109,0x00,0x7A
3.591168080000000,109,0x00,0x81
3.591180100000000,109,0x00,0x89
3.591192140000000,109,0x00,0x91
3.591204160000000,109,0x00,0x9A
3.591216200000000,109,0x00,0xA0
3.591233180000000,109,0x00,0xA5
3.591245200000000,109,0x00,0xA6
3.591257240000000,109,0x00,0xA5
3.591269260000000,109,0x00,0xA5
3.591281280000000,109,0x00,0xA3
3.591293320000000,109,0x00,0x9E
3.591305340000000,109,0x00,0x99
3.591317380000000,109,0x00,0x95
3.591329400000000,109,0x00,0x93
3.591341440000000,109,0x00,0x90
3.591353460000000,109,0x00,0x8D
3.591365500000000,109,0x00,0x8E
3.591377540000000,109,0x00,0x92
3.591389560000000,109,0x00,0x93
3.591401600000000,109,0x00,0x93
3.591413640000000,109,0x00,0x92
3.591425660000000,109,0x00,0x8E
3.591437700000000,109,0x00,0x86
3.591449740000000,109,0x00,0x7E
3.591461760000000,109,0x00,0x79
3.591473800000000,109,0x00,0x74
3.591485840000000,109,0x00,0x6E
3.591497860000000,109,0x00,0x6D
3.591509900000000,109,0x00,0x6C
3.591521920000000,109,0x00,0x6F
3.591533960000000,109,0x00,0x6E
3.591546000000000,109,0x00,0x71
3.591558020000000,109,0x00,0x7A
3.591570060000000,109,0x00,0x84
3.591582100000000,109,0x00,0x8B
3.591594120000000,109,0x00,0x93
3.591606160000000,109,0x00,0x99
3.591618200000000,109,0x00,0x97
3.591630220000000,109,0x00,0x95
3.591642260000000,109,0x00,0x93
3.591654280000000,109,0x00,0x8C
3.591666320000000,109,0x00,0x83
3.591678360000000,109,0x00,0x79
3.591690380000000,109,0x00,0x76
3.591702420000000,109,0x00,0x76
3.591714460000000,109,0x00,0x77
3.591726480000000,109,0x00,0x76
3.591738500000000,109,0x00,0x76
3.591750540000000,109,0x00,0x75
3.591762580000000,109,0x00,0x7A
3.591774600000000,109,0x00,0x80
3.591786640000000,109,0x00,0x86
3.591798680000000,109,0x00,0x8C
3.591810700000000,109,0x00,0x8F
3.591822740000000,109,0x00,0x91
3.591834780000000,109,0x00,0x94
3.591846800000000,109,0x00,0x93
3.591858840000000,109,0x00,0x91
3.591870880000000,109,0x00,0x8C
3.591882900000000,109,0x00,0x81
3.591894940000000,109,0x00,0x7A
3.591906980000000,109,0x00,0x76
3.591919000000000,109,0x00,0x75
3.591931040000000,109,0x00,0x74
3.591943060000000,109,0x00,0x72
3.591955100000000,109,0x00,0x72
3.591967140000000,109,0x00,0x6F
3.591979160000000,109,0x00,0x6F
3.591991200000000,109,0x00,0x76
3.592003240000000,109,0x00,0x7B
3.592015260000000,109,0x00,0x7C
3.592027300000000,109,0x00,0x7E
3.592039320000000,109,0x00,0x82
3.592051360000000,109,0x00,0x87
3.592063380000000,109,0x00,0x85
3.592075420000000,109,0x00,0x85
3.592087460000000,109,0x00,0x86
3.592099480000000,109,0x00,0x83
3.592111520000000,109,0x00,0x7E
3.592123560000000,109,0x00,0x7B
3.592135580000000,109,0x00,0x79
3.592147620000000,109,0x00,0x7C
3.592159640000000,109,0x00,0x7C
3.592171680000000,109,0x00,0x7C
3.592183720000000,109,0x00,0x80
3.592195740000000,109,0x00,0x7F
3.592207780000000,109,0x00,0x7D
3.592219800000000,109,0x00,0x79
3.592231840000000,109,0x00,0x7A
3.592249140000000,109,0x00,0x7B
3.592261180000000,109,0x00,0x7F
3.592273200000000,109,0x00,0x87
3.592285240000000,109,0x00,0x8F
3.592297260000000,109,0x00,0x90
3.592309300000000,109,0x00,0x8F
3.592321340000000,109,0x00,0x90
3.592333360000000,109,0x00,0x91
3.592345400000000,109,0x00,0x94
3.592357420000000,109,0x00,0x92
3.592369460000000,109,0x00,0x93
3.592381500000000,109,0x00,0x96
3.592393520000000,109,0x00,0x97
3.592405560000000,109,0x00,0x95
3.592417580000000,109,0x00,0x96
3.592429620000000,109,0x00,0x97
3.592441660000000,109,0x00,0x97
3.592453680000000,109,0x00,0x98
3.592465720000000,109,0x00,0x98
3.592477760000000,109,0x00,0x99
3.592489780000000,109,0x00,0x9D
3.592501820000000,109,0x00,0xA3
3.592513860000000,109,0x00,0xAB
3.592525880000000,109,0x00,0xB4
3.592537920000000,109,0x00,0xBC
3.592549940000000,109,0x00,0xC3
3.592561980000000,109,0x00,0xC9
3.592574020000000,109,0x00,0xCF
3.592586040000000,109,0x00,0xD4
3.592598080000000,109,0x00,0xD9
3.592610120000000,109,0x00,0xDD
3.592622140000000,109,0x00,0xE1
3.592634180000000,109,0x00,0xE3
3.592646200000000,109,0x00,0xE6
3.592658240000000,109,0x00,0xE7
3.592670280000000,109,0x00,0xEA
3.592682300000000,109,0x00,0xED
3.592694340000000,109,0x00,0xEE
3.592706380000000,109,0x00,0xEF
3.592718400000000,109,0x00,0xF1
3.592730440000000,109,0x00,0xF3
3.592742460000000,109,0x00,0xF3
3.592754500000000,109,0x00,0xF3
3.592766520000000,109,0x00,0xF5
3.592778560000000,109,0x00,0xF5
3.592790600000000,109,0x00,0xF6
3.592802620000000,109,0x00,0xF7
3.592814660000000,109,0x00,0xF8
3.592826680000000,109,0x00,0xF7
3.592838720000000,109,0x00,0xF7
3.592850740000000,109,0x00,0xF6
3.592862780000000,109,0x00,0xF8
3.592874820000000,109,0x00,0xF9
3.592886840000000,109,0x00,0xF9
3.592898880000000,109,0x00,0xF9
3.592910900000000,109,0x00,0xF9
3.592922940000000,109,0x00,0xF8
3.592934960000000,109,0x00,0xF8
3.592947000000000,109,0x00,0xF2
3.592959020000000,109,0x00,0xF0
3.592971060000000,109,0x00,0xF1
3.592983100000000,109,0x00,0xEF
3.592995120000000,109,0x00,0xED
3.593007140000000,109,0x00,0xEC
3.593019180000000,109,0x00,0xEB
3.593031220000000,109,0x00,0xE9
3.593043240000000,109,0x00,0xE5
3.593055280000000,109,0x00,0xE3
3.593067300000000,109,0x00,0xE1
3.593079340000000,109,0x00,0xDE
3.593091380000000,109,0x00,0xDA
3.593103400000000,109,0x00,0xD7
3.593115420000000,109,0x00,0xD2
3.593127460000000,109,0x00,0xCC
3.593139480000000,109,0x00,0xC8
3.593151520000000,109,0x00,0xC2
3.593163560000000,109,0x00,0xBD
3.593175580000000,109,0x00,0xB7
3.593187620000000,109,0x00,0xB1
3.593199640000000,109,0x00,0xAC
3.593211680000000,109,0x00,0xA6
3.593223700000000,109,0x00,0x9D
3.593235740000000,109,0x00,0x96
3.593254900000000,109,0x00,0x92
3.593266920000000,109,0x00,0x8E
3.593278960000000,109,0x00,0x8A
3.593291000000000,109,0x00,0x83
3.593303020000000,109,0x00,0x81
3.593315060000000,109,0x00,0x7F
3.593327080000000,109,0x00,0x7F
3.593339120000000,109,0x00,0x82
3.593351160000000,109,0x00,0x83
3.593363180000000,109,0x00,0x83
3.593375220000000,109,0x00,0x81
3.593387240000000,109,0x00,0x7D
3.593399280000000,109,0x00,0x7A
3.593411300000000,109,0x00,0x78
3.593423340000000,109,0x00,0x73
3.593435380000000,109,0x00,0x71
3.593447400000000,109,0x00,0x73
3.593459440000000,109,0x00,0x75
3.593471480000000,109,0x00,0x77
3.593483500000000,109,0x00,0x79
3.593495540000000,109,0x00,0x7D
3.593507580000000,109,0x00,0x86
3.593519600000000,109,0x00,0x8F
3.593531620000000,109,0x00,0x98
3.593543660000000,109,0x00,0xA2
3.593555700000000,109,0x00,0xA7
3.593567740000000,109,0x00,0xA9
3.593579760000000,109,0x00,0xA9
3.593591800000000,109,0x00,0xA8
3.593603820000000,109,0x00,0xA7
3.593615860000000,109,0x00,0xA3
3.593627880000000,109,0x00,0x9F
3.593639920000000,109,0x00,0x9E
3.593651940000000,109,0x00,0x9B
3.593663980000000,109,0x00,0x98
3.593676020000000,109,0x00,0x96
3.593688040000000,109,0x00,0x95
3.593700080000000,109,0x00,0x9B
3.593712120000000,109,0x00,0x9E
3.593724140000000,109,0x00,0xA0
3.593736180000000,109,0x00,0xA1
3.593748220000000,109,0x00,0x9D
3.593760240000000,109,0x00,0x94
3.593772280000000,109,0x00,0x8B
3.593784320000000,109,0x00,0x83
3.593796340000000,109,0x00,0x7D
3.593808360000000,109,0x00,0x75
3.593820400000000,109,0x00,0x70
3.593832440000000,109,0x00,0x6D
3.593844460000000,109,0x00,0x6C
3.593856500000000,109,0x00,0x68
3.593868520000000,109,0x00,0x66
3.593880560000000,109,0x00,0x6A
3.593892600000000,109,0x00,0x72
3.593904640000000,109,0x00,0x7A
3.593916660000000,109,0x00,0x87
3.593928700000000,109,0x00,0x93
3.593940720000000,109,0x00,0x9A
3.593952760000000,109,0x00,0x9C
3.593964780000000,109,0x00,0x9E
3.593976820000000,109,0x00,0x97
3.593988860000000,109,0x00,0x8C
3.594000880000000,109,0x00,0x7E
3.594012920000000,109,0x00,0x79
3.594024940000000,109,0x00,0x76
3.594036980000000,109,0x00,0x74
3.594049020000000,109,0x00,0x73
3.594061040000000,109,0x00,0x74
3.594073080000000,109,0x00,0x71
3.594085100000000,109,0x00,0x73
3.594097140000000,109,0x00,0x75
3.594109160000000,109,0x00,0x7A
3.594121200000000,109,0x00,0x7F
3.594133220000000,109,0x00,0x80
3.594145260000000,109,0x00,0x86
3.594157300000000,109,0x00,0x8D
3.594169340000000,109,0x00,0x93
3.594181360000000,109,0x00,0x94
3.594193400000000,109,0x00,0x91
3.594205420000000,109,0x00,0x89
3.594217460000000,109,0x00,0x84
3.594229480000000,109,0x00,0x7E
3.594241520000000,109,0x00,0x7B
3.594253560000000,109,0x00,0x77
3.594270360000000,109,0x00,0x76
3.594282400000000,109,0x00,0x74
3.594294440000000,109,0x00,0x6F
3.594306460000000,109,0x00,0x6E
3.594318500000000,109,0x00,0x74
3.594330520000000,109,0x00,0x76
3.594342560000000,109,0x00,0x76
3.594354600000000,109,0x00,0x75
3.594366620000000,109,0x00,0x78
3.594378660000000,109,0x00,0x7A
3.594390680000000,109,0x00,0x79
3.594402720000000,109,0x00,0x7F
3.594414740000000,109,0x00,0x84
3.594426780000000,109,0x00,0x85
3.594438820000000,109,0x00,0x83
3.594450840000000,109,0x00,0x80
3.594462880000000,109,0x00,0x82
3.594474900000000,109,0x00,0x82
3.594486940000000,109,0x00,0x83
3.594498960000000,109,0x00,0x81
3.594511000000000,109,0x00,0x82
3.594523020000000,109,0x00,0x80
3.594535060000000,109,0x00,0x7D
3.594547080000000,109,0x00,0x7B
3.594559120000000,109,0x00,0x79
3.594571160000000,109,0x00,0x77
3.594583180000000,109,0x00,0x77
3.594595220000000,109,0x00,0x7B
3.594607240000000,109,0x00,0x82
3.594619280000000,109,0x00,0x85
3.594631300000000,109,0x00,0x84
3.594643340000000,109,0x00,0x86
3.594655380000000,109,0x00,0x88
3.594667400000000,109,0x00,0x8C
3.594679440000000,109,0x00,0x8E
3.594691460000000,109,0x00,0x93
3.594703500000000,109,0x00,0x98
3.594715540000000,109,0x00,0x97
3.594727560000000,109,0x00,0x97
3.594739600000000,109,0x00,0x96
3.594751620000000,109,0x00,0x95
3.594763660000000,109,0x00,0x94
3.594775700000000,109,0x00,0x92
3.594787720000000,109,0x00,0x92
3.594799760000000,109,0x00,0x91
3.594811780000000,109,0x00,0x94
3.594823820000000,109,0x00,0x99
3.594835860000000,109,0x00,0xA1
3.594847880000000,109,0x00,0xAB
3.594859920000000,109,0x00,0xB4
3.594871940000000,109,0x00,0xBC
3.594883980000000,109,0x00,0xC1
3.594896000000000,109,0x00,0xC9
3.594908040000000,109,0x00,0xCD
3.594920060000000,109,0x00,0xD2
3.594932080000000,109,0x00,0xD8
3.594944120000000,109,0x00,0xDD
3.594956140000000,109,0x00,0xDF
3.594968160000000,109,0x00,0xE3
3.594980200000000,109,0x00,0xE5
3.594992240000000,109,0x00,0xE8
3.595004260000000,109,0x00,0xEB
3.595016300000000,109,0x00,0xED
3.595028320000000,109,0x00,0xEE
3.595040360000000,109,0x00,0xF0
3.595052400000000,109,0x00,0xF0
3.595064420000000,109,0x00,0xF2
3.595076460000000,109,0x00,0xF2
3.595088480000000,109,0x00,0xF3
3.595100520000000,109,0x00,0xF4
3.595112540000000,109,0x00,0xF5
3.595124580000000,109,0x00,0xF6
3.595136600000000,109,0x00,0xF6
3.595148640000000,109,0x00,0xF5
3.595160660000000,109,0x00,0xF6
3.595172700000000,109,0x00,0xF7
3.595184740000000,109,0x00,0xF7
3.595196760000000,109,0x00,0xF8
3.595208800000000,109,0x00,0xF8
3.595220820000000,109,0x00,0xF8
3.595232860000000,109,0x00,0xF7
3.595244900000000,109,0x00,0xF7
3.595256920000000,109,0x00,0xF7
3.595268960000000,109,0x00,0xF1
3.595284180000000,109,0x00,0xF0
3.595296220000000,109,0x00,0xEF
3.595308260000000,109,0x00,0xED
3.595320280000000,109,0x00,0xED
3.595332320000000,109,0x00,0xEB
3.595344340000000,109,0x00,0xE8
3.595356380000000,109,0x00,0xE5
3.595368420000000,109,0x00,0xE1
3.595380440000000,109,0x00,0xDF
3.595392480000000,109,0x00,0xDD
3.595404500000000,109,0x00,0xD8
3.595416540000000,109,0x00,0xD4
3.595428560000000,109,0x00,0xD1
3.595440600000000,109,0x00,0xCB
3.595452640000000,109,0x00,0xC3
3.595464660000000,109,0x00,0xBF
3.595476700000000,109,0x00,0xBA
3.595488720000000,109,0x00,0xB3
3.595500760000000,109,0x00,0xAD
3.595512780000000,109,0x00,0xA7
3.595524820000000,109,0x00,0xA4
3.595536840000000,109,0x00,0x9F
3.595548880000000,109,0x00,0x98
3.595560920000000,109,0x00,0x96
3.595572960000000,109,0x00,0x95
3.595584980000000,109,0x00,0x94
3.595597020000000,109,0x00,0x91
3.595609040000000,109,0x00,0x8C
3.595621080000000,109,0x00,0x89
3.595633120000000,109,0x00,0x8B
3.595645140000000,109,0x00,0x8C
3.595657180000000,109,0x00,0x8F
3.595669220000000,109,0x00,0x8F
3.595681240000000,109,0x00,0x90
3.595693280000000,109,0x00,0x8D
3.595705320000000,109,0x00,0x8B
3.595717340000000,109,0x00,0x87
3.595729380000000,109,0x00,0x83
3.595741420000000,109,0x00,0x7F
3.595753440000000,109,0x00,0x7C
3.595765480000000,109,0x00,0x7D
3.595777500000000,109,0x00,0x7B
3.595789540000000,109,0x00,0x7E
3.595801580000000,109,0x00,0x7F
3.595813600000000,109,0x00,0x81
3.595825640000000,109,0x00,0x88
3.595837660000000,109,0x00,0x92
3.595849700000000,109,0x00,0x9A
3.595861740000000,109,0x00,0xA1
3.595873780000000,109,0x00,0xA3
3.595885800000000,109,0x00,0xA7
3.595897840000000,109,0x00,0xA7
3.595909860000000,109,0x00,0xA8
3.595921900000000,109,0x00,0xA6
3.595933920000000,109,0x00,0xA3
3.595945960000000,109,0x00,0xA1
3.595957980000000,109,0x00,0xA1
3.595970020000000,109,0x00,0x9E
3.595982040000000,109,0x00,0x9D
3.595994080000000,109,0x00,0x9C
3.596006120000000,109,0x00,0x9D
3.596018140000000,109,0x00,0x9E
3.596030180000000,109,0x00,0xA2
3.596042220000000,109,0x00,0xA6
3.596054240000000,109,0x00,0xA8
3.596066280000000,109,0x00,0xA6
3.596078320000000,109,0x00,0xA0
3.596090340000000,109,0x00,0x98
3.596102380000000,109,0x00,0x8F
3.596114400000000,109,0x00,0x8A
3.596126440000000,109,0x00,0x80
3.596138480000000,109,0x00,0x78
3.596150500000000,109,0x00,0x73
3.596162540000000,109,0x00,0x6F
3.596174560000000,109,0x00,0x69
3.596186600000000,109,0x00,0x65
3.596198640000000,109,0x00,0x66
3.596210660000000,109,0x00,0x68
3.596222700000000,109,0x00,0x6D
3.596234720000000,109,0x00,0x78
3.596246760000000,109,0x00,0x86
3.596258800000000,109,0x00,0x92
3.596270820000000,109,0x00,0x9C
3.596288160000000,109,0x00,0x9F
3.596300180000000,109,0x00,0x9E
3.596312220000000,109,0x00,0x95
3.596324240000000,109,0x00,0x88
3.596336280000000,109,0x00,0x7F
3.596348320000000,109,0x00,0x79
3.596360360000000,109,0x00,0x77
3.596372380000000,109,0x00,0x76
3.596384420000000,109,0x00,0x74
3.596396440000000,109,0x00,0x72
3.596408480000000,109,0x00,0x72
3.596420520000000,109,0x00,0x6F
3.596432540000000,109,0x00,0x71
3.596444580000000,109,0x00,0x74
3.596456620000000,109,0x00,0x72
3.596468640000000,109,0x00,0x76
3.596480680000000,109,0x00,0x82
3.596492720000000,109,0x00,0x8B
3.596504740000000,109,0x00,0x93
3.596516780000000,109,0x00,0x93
3.596528800000000,109,0x00,0x91
3.596540840000000,109,0x00,0x8E
3.596552880000000,109,0x00,0x8A
3.596564900000000,109,0x00,0x85
3.596576940000000,109,0x00,0x80
3.596588980000000,109,0x00,0x7B
3.596601000000000,109,0x00,0x76
3.596613040000000,109,0x00,0x70
3.596625060000000,109,0x00,0x6F
3.596637100000000,109,0x00,0x72
3.596649140000000,109,0x00,0x74
3.596661160000000,109,0x00,0x75
3.596673200000000,109,0x00,0x74
3.596685220000000,109,0x00,0x73
3.596697260000000,109,0x00,0x73
3.596709280000000,109,0x00,0x71
3.596721320000000,109,0x00,0x72
3.596733360000000,109,0x00,0x7C
3.596745380000000,109,0x00,0x7E
3.596757420000000,109,0x00,0x7E
3.596769440000000,109,0x00,0x7F
3.596781480000000,109,0x00,0x83
3.596793520000000,109,0x00,0x87
3.596805540000000,109,0x00,0x88
3.596817580000000,109,0x00,0x88
3.596829600000000,109,0x00,0x86
3.596841640000000,109,0x00,0x83
3.596853660000000,109,0x00,0x7C
3.596865700000000,109,0x00,0x7A
3.596877720000000,109,0x00,0x79
3.596889760000000,109,0x00,0x76
3.596901800000000,109,0x00,0x74
3.596913820000000,109,0x00,0x75
3.596925860000000,109,0x00,0x78
3.596937880000000,109,0x00,0x7B
3.596949920000000,109,0x00,0x7A
3.596961940000000,109,0x00,0x7B
3.596973980000000,109,0x00,0x7C
3.596986020000000,109,0x00,0x81
3.596998040000000,109,0x00,0x87
3.597010080000000,109,0x00,0x8E
3.597022100000000,109,0x00,0x94
3.597034140000000,109,0x00,0x94
3.597046160000000,109,0x00,0x96
3.597058200000000,109,0x00,0x95
3.597070220000000,109,0x00,0x94
3.597082260000000,109,0x00,0x92
3.597094300000000,109,0x00,0x8F
3.597106320000000,109,0x00,0x8B
3.597118360000000,109,0x00,0x89
3.597130380000000,109,0x00,0x8A
3.597142420000000,109,0x00,0x8E
3.597154460000000,109,0x00,0x95
3.597166480000000,109,0x00,0xA1
3.597178520000000,109,0x00,0xAC
3.597190540000000,109,0x00,0xB1
3.597202580000000,109,0x00,0xB9
3.597214600000000,109,0x00,0xC0
3.597226640000000,109,0x00,0xC7
3.597238680000000,109,0x00,0xCC
3.597250700000000,109,0x00,0xD2
3.597262740000000,109,0x00,0xD7
3.597274780000000,109,0x00,0xDD
3.597286800000000,109,0x00,0xDF
3.597303600000000,109,0x00,0xE3
3.597315620000000,109,0x00,0xE6
3.597327660000000,109,0x00,0xEA
3.597339700000000,109,0x00,0xEB
3.597351720000000,109,0x00,0xEC
3.597363760000000,109,0x00,0xEF
3.597375800000000,109,0x00,0xF0
3.597387820000000,109,0x00,0xF0
3.597399860000000,109,0x00,0xF3
3.597411880000000,109,0x00,0xF3
3.597423920000000,109,0x00,0xF5
3.597435960000000,109,0x00,0xF5
3.597447980000000,109,0x00,0xF5
3.597460000000000,109,0x00,0xF6
3.597472040000000,109,0x00,0xF7
3.597484080000000,109,0x00,0xF7
3.597496100000000,109,0x00,0xF6
3.597508140000000,109,0x00,0xF7
3.597520180000000,109,0x00,0xF8
3.597532200000000,109,0x00,0xF8
3.597544240000000,109,0x00,0xF9
3.597556260000000,109,0x00,0xF8
3.597568300000000,109,0x00,0xF8
3.597580320000000,109,0x00,0xF8
3.597592360000000,109,0x00,0xF0
3.597604380000000,109,0x00,0xEE
3.597616420000000,109,0x00,0xEF
3.597628460000000,109,0x00,0xED
3.597640480000000,109,0x00,0xEB
3.597652520000000,109,0x00,0xE8
3.597664560000000,109,0x00,0xE6
3.597676580000000,109,0x00,0xE1
3.597688620000000,109,0x00,0xDE
3.597700640000000,109,0x00,0xDC
3.597712680000000,109,0x00,0xD8
3.597724720000000,109,0x00,0xD4
3.597736740000000,109,0x00,0xD0
3.597748780000000,109,0x00,0xCB
3.597760820000000,109,0x00,0xC6
3.597772840000000,109,0x00,0xC0
3.597784880000000,109,0x00,0xBA
3.597796920000000,109,0x00,0xB3
3.597808940000000,109,0x00,0xAC
3.597820980000000,109,0x00,0xA6
3.597833000000000,109,0x00,0xA2
3.597845040000000,109,0x00,0xA3
3.597857080000000,109,0x00,0xA2
3.597869100000000,109,0x00,0x9F
3.597881140000000,109,0x00,0x9E
3.597893160000000,109,0x00,0x9E
3.597905200000000,109,0x00,0x9E
3.597917240000000,109,0x00,0x9C
3.597929280000000,109,0x00,0x9A
3.597941300000000,109,0x00,0x98
3.597953340000000,109,0x00,0x97
3.597965380000000,109,0x00,0x98
3.597977400000000,109,0x00,0x9D
3.597989440000000,109,0x00,0x9F
3.598001480000000,109,0x00,0x9D
3.598013500000000,109,0x00,0x9C
3.598025540000000,109,0x00,0x97
3.598037580000000,109,0x00,0x93
3.598049600000000,109,0x00,0x91
3.598061640000000,109,0x00,0x8D
3.598073660000000,109,0x00,0x89
3.598085700000000,109,0x00,0x8A
3.598097740000000,109,0x00,0x87
3.598109760000000,109,0x00,0x85
3.598121800000000,109,0x00,0x86
3.598133820000000,109,0x00,0x89
3.598145860000000,109,0x00,0x8D
3.598157900000000,109,0x00,0x91
3.598169920000000,109,0x00,0x98
3.598181960000000,109,0x00,0x9C
3.598193980000000,109,0x00,0x9E
3.598206020000000,109,0x00,0x9F
3.598218060000000,109,0x00,0x9F
3.598230080000000,109,0x00,0xA0
3.598242120000000,109,0x00,0x9F
3.598254140000000,109,0x00,0x9D
3.598266180000000,109,0x00,0x9C
3.598278200000000,109,0x00,0x9D
3.598290240000000,109,0x00,0x9C
3.598302260000000,109,0x00,0x9D
3.598319820000000,109,0x00,0x9E
3.598331860000000,109,0x00,0x9D
3.598343880000000,109,0x00,0x9D
3.598355920000000,109,0x00,0x9D
3.598367940000000,109,0x00,0xA2
3.598379980000000,109,0x00,0xAA
3.598392000000000,109,0x00,0xAA
3.598404040000000,109,0x00,0xA6
3.598416080000000,109,0x00,0xA2
3.598428100000000,109,0x00,0x9B
3.598440140000000,109,0x00,0x96
3.598452180000000,109,0x00,0x8E
3.598464200000000,109,0x00,0x84
3.598476240000000,109,0x00,0x7E
3.598488280000000,109,0x00,0x78
3.598500300000000,109,0x00,0x71
3.598512340000000,109,0x00,0x68
3.598524360000000,109,0x00,0x67
3.598536400000000,109,0x00,0x65
3.598548440000000,109,0x00,0x66
3.598560460000000,109,0x00,0x6C
3.598572500000000,109,0x00,0x77
3.598584520000000,109,0x00,0x82
3.598596560000000,109,0x00,0x8E
3.598608580000000,109,0x00,0x99
3.598620620000000,109,0x00,0x9F
3.598632640000000,109,0x00,0x9A
3.598644680000000,109,0x00,0x90
3.598656700000000,109,0x00,0x87
3.598668740000000,109,0x00,0x81
3.598680760000000,109,0x00,0x7D
3.598692800000000,109,0x00,0x78
3.598704820000000,109,0x00,0x77
3.598716860000000,109,0x00,0x72
3.598728900000000,109,0x00,0x73
3.598740920000000,109,0x00,0x70
3.598752960000000,109,0x00,0x6D
3.598764980000000,109,0x00,0x6E
3.598777020000000,109,0x00,0x6B
3.598789060000000,109,0x00,0x6A
3.598801080000000,109,0x00,0x74
3.598813120000000,109,0x00,0x7F
3.598825140000000,109,0x00,0x8A
3.598837180000000,109,0x00,0x8F
3.598849220000000,109,0x00,0x92
3.598861240000000,109,0x00,0x95
3.598873280000000,109,0x00,0x94
3.598885320000000,109,0x00,0x91
3.598897340000000,109,0x00,0x8D
3.598909380000000,109,0x00,0x87
3.598921420000000,109,0x00,0x80
3.598933440000000,109,0x00,0x78
3.598945480000000,109,0x00,0x75
3.598957500000000,109,0x00,0x76
3.598969540000000,109,0x00,0x77
3.598981580000000,109,0x00,0x75
3.598993600000000,109,0x00,0x73
3.599005640000000,109,0x00,0x73
3.599017680000000,109,0x00,0x70
3.599029700000000,109,0x00,0x6C
3.599041740000000,109,0x00,0x6D
3.599053760000000,109,0x00,0x74
3.599065800000000,109,0x00,0x77
3.599077840000000,109,0x00,0x78
3.599089860000000,109,0x00,0x7D
3.599101900000000,109,0x00,0x82
3.599113920000000,109,0x00,0x89
3.599125960000000,109,0x00,0x8A
3.599138000000000,109,0x00,0x8D
3.599150020000000,109,0x00,0x8C
3.599162060000000,109,0x00,0x89
3.599174080000000,109,0x00,0x82
3.599186120000000,109,0x00,0x7E
3.599198160000000,109,0x00,0x7A
3.599210180000000,109,0x00,0x78
3.599222220000000,109,0x00,0x74
3.599234260000000,109,0x00,0x73
3.599246280000000,109,0x00,0x73
3.599258320000000,109,0x00,0x73
3.599270340000000,109,0x00,0x74
3.599282380000000,109,0x00,0x73
3.599294420000000,109,0x00,0x72
3.599306440000000,109,0x00,0x77
3.599325640000000,109,0x00,0x7C
3.599337660000000,109,0x00,0x84
3.599349700000000,109,0x00,0x89
3.599361740000000,109,0x00,0x8C
3.599373760000000,109,0x00,0x8F
3.599385800000000,109,0x00,0x90
3.599397820000000,109,0x00,0x92
3.599409860000000,109,0x00,0x90
3.599421900000000,109,0x00,0x8C
3.599433920000000,109,0x00,0x87
3.599445960000000,109,0x00,0x84
3.599457980000000,109,0x00,0x83
3.599470020000000,109,0x00,0x89
3.599482060000000,109,0x00,0x8E
3.599494080000000,109,0x00,0x98
3.599506120000000,109,0x00,0xA3
3.599518140000000,109,0x00,0xA9
3.599530180000000,109,0x00,0xB0
3.599542200000000,109,0x00,0xB6
3.599554240000000,109,0x00,0xBE
3.599566280000000,109,0x00,0xC6
3.599578320000000,109,0x00,0xCC
3.599590340000000,109,0x00,0xD1
3.599602380000000,109,0x00,0xD7
3.599614400000000,109,0x00,0xDA
3.599626440000000,109,0x00,0xDE
3.599638480000000,109,0x00,0xE2
3.599650500000000,109,0x00,0xE5
3.599662540000000,109,0x00,0xE7
3.599674560000000,109,0x00,0xEA
3.599686600000000,109,0x00,0xEB
3.599698640000000,109,0x00,0xED
3.599710660000000,109,0x00,0xEF
3.599722700000000,109,0x00,0xF1
3.599734720000000,109,0x00,0xF0
3.599746760000000,109,0x00,0xF2
3.599758800000000,109,0x00,0xF3
3.599770820000000,109,0x00,0xF4
3.599782860000000,109,0x00,0xF5
3.599794880000000,109,0x00,0xF6
3.599806920000000,109,0x00,0xF6
3.599818940000000,109,0x00,0xF5
3.599830980000000,109,0x00,0xF7
3.599843000000000,109,0x00,0xF7
3.599855040000000,109,0x00,0xF8
3.599867060000000,109,0x00,0xF8
3.599879100000000,109,0x00,0xF8
3.599891140000000,109,0x00,0xF8
3.599903160000000,109,0x00,0xF8
3.599915200000000,109,0x00,0xEE
3.599927220000000,109,0x00,0xEE
3.599939260000000,109,0x00,0xEC
3.599951280000000,109,0x00,0xEA
3.599963300000000,109,0x00,0xE9
3.599975340000000,109,0x00,0xE5
3.599987360000000,109,0x00,0xE4
3.599999400000000,109,0x00,0xDF
3.600011440000000,109,0x00,0xDC
3.600023460000000,109,0x00,0xD8
3.600035500000000,109,0x00,0xD4
3.600047520000000,109,0x00,0xD0
3.600059560000000,109,0x00,0xCC
3.600071600000000,109,0x00,0xC5
3.600083620000000,109,0x00,0xC1
3.600095660000000,109,0x00,0xBB
3.600107700000000,109,0x00,0xB6
3.600119720000000,109,0x00,0xB2
3.600131760000000,109,0x00,0xAB
3.600143800000000,109,0x00,0xA6
3.600155840000000,109,0x00,0xA4
3.600167860000000,109,0x00,0xA6
3.600179900000000,109,0x00,0xA7
3.600191920000000,109,0x00,0xA6
3.600203960000000,109,0x00,0xA5
3.600216000000000,109,0x00,0xA8
3.600228020000000,109,0x00,0xA6
3.600240060000000,109,0x00,0xA4
3.600252100000000,109,0x00,0xA2
3.600264120000000,109,0x00,0xA2
3.600276160000000,109,0x00,0xA1
3.600288180000000,109,0x00,0xA0
3.600300220000000,109,0x00,0xA3
3.600312260000000,109,0x00,0xA6
3.600324280000000,109,0x00,0xA4
3.600341240000000,109,0x00,0xA3
3.600353280000000,109,0x00,0xA0
3.600365320000000,109,0x00,0x9B
3.600377360000000,109,0x00,0x98
3.600389380000000,109,0x00,0x95
3.600401420000000,109,0x00,0x90
3.600413460000000,109,0x00,0x90
3.600425480000000,109,0x00,0x8D
3.600437520000000,109,0x00,0x8A
3.600449560000000,109,0x00,0x87
3.600461580000000,109,0x00,0x89
3.600473620000000,109,0x00,0x8A
3.600485660000000,109,0x00,0x8C
3.600497680000000,109,0x00,0x8D
3.600509700000000,109,0x00,0x90
3.600521740000000,109,0x00,0x90
3.600533780000000,109,0x00,0x91
3.600545800000000,109,0x00,0x91
3.600557840000000,109,0x00,0x92
3.600569860000000,109,0x00,0x92
3.600581900000000,109,0x00,0x92
3.600593940000000,109,0x00,0x92
3.600605960000000,109,0x00,0x93
3.600618000000000,109,0x00,0x93
3.600630040000000,109,0x00,0x97
3.600642060000000,109,0x00,0x96
3.600654100000000,109,0x00,0x94
3.600666120000000,109,0x00,0x90
3.600678160000000,109,0x00,0x8F
3.600690180000000,109,0x00,0x95
3.600702220000000,109,0x00,0xA0
3.600714260000000,109,0x00,0xA3
3.600726300000000,109,0x00,0xA1
3.600738320000000,109,0x00,0xA0
3.600750360000000,109,0x00,0x9D
3.600762400000000,109,0x00,0x9C
3.600774420000000,109,0x00,0x95
3.600786460000000,109,0x00,0x92
3.600798480000000,109,0x00,0x8C
3.600810520000000,109,0x00,0x88
3.600822560000000,109,0x00,0x7E
3.600834580000000,109,0x00,0x73
3.600846620000000,109,0x00,0x6D
3.600858660000000,109,0x00,0x6A
3.600870680000000,109,0x00,0x67
3.600882720000000,109,0x00,0x69
3.600894740000000,109,0x00,0x6D
3.600906780000000,109,0x00,0x72
3.600918820000000,109,0x00,0x7D
3.600930840000000,109,0x00,0x8D
3.600942880000000,109,0x00,0x96
3.600954920000000,109,0x00,0x9A
3.600966940000000,109,0x00,0x97
3.600978980000000,109,0x00,0x8F
3.600991020000000,109,0x00,0x8A
3.601003040000000,109,0x00,0x85
3.601015080000000,109,0x00,0x7F
3.601027100000000,109,0x00,0x7A
3.601039140000000,109,0x00,0x78
3.601051180000000,109,0x00,0x75
3.601063200000000,109,0x00,0x72
3.601075240000000,109,0x00,0x70
3.601087260000000,109,0x00,0x6E
3.601099300000000,109,0x00,0x69
3.601111340000000,109,0x00,0x67
3.601123360000000,109,0x00,0x6D
3.601135380000000,109,0x00,0x76
3.601147420000000,109,0x00,0x7E
3.601159460000000,109,0x00,0x83
3.601171480000000,109,0x00,0x8A
3.601183520000000,109,0x00,0x92
3.601195540000000,109,0x00,0x96
3.601207580000000,109,0x00,0x97
3.601219600000000,109,0x00,0x97
3.601231640000000,109,0x00,0x93
3.601243660000000,109,0x00,0x90
3.601255700000000,109,0x00,0x88
3.601267720000000,109,0x00,0x83
3.601279760000000,109,0x00,0x81
3.601291800000000,109,0x00,0x7F
3.601303820000000,109,0x00,0x7B
3.601315860000000,109,0x00,0x78
3.601327900000000,109,0x00,0x75
3.601343120000000,109,0x00,0x72
3.601355160000000,109,0x00,0x6D
3.601367200000000,109,0x00,0x6B
3.601379220000000,109,0x00,0x6D
3.601391260000000,109,0x00,0x70
3.601403300000000,109,0x00,0x74
3.601415320000000,109,0x00,0x77
3.601427360000000,109,0x00,0x7C
3.601439400000000,109,0x00,0x81
3.601451420000000,109,0x00,0x83
3.601463440000000,109,0x00,0x86
3.601475480000000,109,0x00,0x8C
3.601487500000000,109,0x00,0x8E
3.601499540000000,109,0x00,0x87
3.601511580000000,109,0x00,0x84
3.601523600000000,109,0x00,0x7F
3.601535640000000,109,0x00,0x7C
3.601547660000000,109,0x00,0x76
3.601559700000000,109,0x00,0x74
3.601571740000000,109,0x00,0x70
3.601583760000000,109,0x00,0x6D
3.601595800000000,109,0x00,0x6E
3.601607820000000,109,0x00,0x70
3.601619860000000,109,0x00,0x70
3.601631900000000,109,0x00,0x70
3.601643920000000,109,0x00,0x73
3.601655960000000,109,0x00,0x76
3.601667980000000,109,0x00,0x7C
3.601680020000000,109,0x00,0x7F
3.601692060000000,109,0x00,0x84
3.601704100000000,109,0x00,0x87
3.601716120000000,109,0x00,0x8A
3.601728160000000,109,0x00,0x8A
3.601740180000000,109,0x00,0x8A
3.601752220000000,109,0x00,0x84
3.601764260000000,109,0x00,0x80
3.601776280000000,109,0x00,0x7E
3.601788320000000,109,0x00,0x80
3.601800360000000,109,0x00,0x89
3.601812380000000,109,0x00,0x90
3.601824420000000,109,0x00,0x98
3.601836460000000,109,0x00,0x9E
3.601848500000000,109,0x00,0xA6
3.601860520000000,109,0x00,0xAE
3.601872560000000,109,0x00,0xB6
3.601884600000000,109,0x00,0xBD
3.601896620000000,109,0x00,0xC5
3.601908660000000,109,0x00,0xCB
3.601920680000000,109,0x00,0xD1
3.601932720000000,109,0x00,0xD6
3.601944760000000,109,0x00,0xDA
3.601956780000000,109,0x00,0xDE
3.601968820000000,109,0x00,0xE3
3.601980860000000,109,0x00,0xE4
3.601992880000000,109,0x00,0xE7
3.602004920000000,109,0x00,0xEB
3.602016960000000,109,0x00,0xEC
3.602029000000000,109,0x00,0xED
3.602041020000000,109,0x00,0xEF
3.602053060000000,109,0x00,0xF0
3.602065080000000,109,0x00,0xF1
3.602077120000000,109,0x00,0xF4
3.602089140000000,109,0x00,0xF5
3.602101180000000,109,0x00,0xF5
3.602113220000000,109,0x00,0xF6
3.602125240000000,109,0x00,0xF6
3.602137260000000,109,0x00,0xF6
3.602149300000000,109,0x00,0xF6
3.602161340000000,109,0x00,0xF7
3.602173380000000,109,0x00,0xF7
3.602185400000000,109,0x00,0xF7
3.602197440000000,109,0x00,0xF8
3.602209460000000,109,0x00,0xF7
3.602221500000000,109,0x00,0xF7
3.602233540000000,109,0x00,0xED
3.602245580000000,109,0x00,0xEC
3.602257600000000,109,0x00,0xEB
3.602269640000000,109,0x00,0xE8
3.602281660000000,109,0x00,0xE7
3.602293700000000,109,0x00,0xE2
3.602305740000000,109,0x00,0xE1
3.602317780000000,109,0x00,0xDC
3.602329800000000,109,0x00,0xD9
3.602341840000000,109,0x00,0xD7
3.602359240000000,109,0x00,0xD2
3.602371280000000,109,0x00,0xCD
3.602383320000000,109,0x00,0xC8
3.602395340000000,109,0x00,0xC3
3.602407380000000,109,0x00,0xBE
3.602419420000000,109,0x00,0xB9
3.602431440000000,109,0x00,0xB5
3.602443480000000,109,0x00,0xB3
3.602455520000000,109,0x00,0xAF
3.602467540000000,109,0x00,0xAB
3.602479580000000,109,0x00,0xAA
3.602491600000000,109,0x00,0xAC
3.602503640000000,109,0x00,0xAB
3.602515680000000,109,0x00,0xAA
3.602527700000000,109,0x00,0xAA
3.602539740000000,109,0x00,0xA9
3.602551780000000,109,0x00,0xA9
3.602563800000000,109,0x00,0xA6
3.602575840000000,109,0x00,0xA2
3.602587880000000,109,0x00,0xA1
3.602599900000000,109,0x00,0x9F
3.602611940000000,109,0x00,0x9D
3.602623960000000,109,0x00,0x9E
3.602636000000000,109,0x00,0xA0
3.602648040000000,109,0x00,0xA0
3.602660060000000,109,0x00,0x9E
3.602672100000000,109,0x00,0x9A
3.602684140000000,109,0x00,0x96
3.602696160000000,109,0x00,0x93
3.602708200000000,109,0x00,0x8E
3.602720240000000,109,0x00,0x8C
3.602732260000000,109,0x00,0x8A
3.602744300000000,109,0x00,0x87
3.602756340000000,109,0x00,0x84
3.602768360000000,109,0x00,0x7F
3.602780400000000,109,0x00,0x80
3.602792420000000,109,0x00,0x80
3.602804460000000,109,0x00,0x80
3.602816500000000,109,0x00,0x7F
3.602828520000000,109,0x00,0x80
3.602840560000000,109,0x00,0x80
3.602852580000000,109,0x00,0x80
3.602864620000000,109,0x00,0x82
3.602876660000000,109,0x00,0x81
3.602888680000000,109,0x00,0x84
3.602900700000000,109,0x00,0x84
3.602912740000000,109,0x00,0x83
3.602924780000000,109,0x00,0x85
3.602936800000000,109,0x00,0x85
3.602948840000000,109,0x00,0x89
3.602960860000000,109,0x00,0x88
3.602972900000000,109,0x00,0x85
3.602984940000000,109,0x00,0x7E
3.602996960000000,109,0x00,0x7C
3.603009000000000,109,0x00,0x82
3.603021020000000,109,0x00,0x8E
3.603033060000000,109,0x00,0x92
3.603045100000000,109,0x00,0x93
3.603057120000000,109,0x00,0x92
3.603069160000000,109,0x00,0x92
3.603081200000000,109,0x00,0x94
3.603093220000000,109,0x00,0x91
3.603105260000000,109,0x00,0x8E
3.603117280000000,109,0x00,0x90
3.603129320000000,109,0x00,0x90
3.603141340000000,109,0x00,0x8B
3.603153380000000,109,0x00,0x81
3.603165400000000,109,0x00,0x7A
3.603177440000000,109,0x00,0x71
3.603189460000000,109,0x00,0x69
3.603201500000000,109,0x00,0x69
3.603213520000000,109,0x00,0x6A
3.603225560000000,109,0x00,0x6B
3.603237580000000,109,0x00,0x72
3.603249620000000,109,0x00,0x7E
3.603261660000000,109,0x00,0x88
3.603273680000000,109,0x00,0x91
3.603285720000000,109,0x00,0x95
3.603297740000000,109,0x00,0x94
3.603309780000000,109,0x00,0x91
3.603321820000000,109,0x00,0x8F
3.603333840000000,109,0x00,0x88
3.603345880000000,109,0x00,0x85
3.603357900000000,109,0x00,0x80
3.603375040000000,109,0x00,0x7D
3.603387080000000,109,0x00,0x79
3.603399100000000,109,0x00,0x75
3.603411140000000,109,0x00,0x71
3.603423160000000,109,0x00,0x6D
3.603435200000000,109,0x00,0x6B
3.603447240000000,109,0x00,0x6D
3.603459260000000,109,0x00,0x74
3.603471300000000,109,0x00,0x79
3.603483320000000,109,0x00,0x7C
3.603495360000000,109,0x00,0x7F
3.603507380000000,109,0x00,0x88
3.603519420000000,109,0x00,0x8D
3.603531460000000,109,0x00,0x91
3.603543480000000,109,0x00,0x97
3.603555520000000,109,0x00,0x98
3.603567540000000,109,0x00,0x99
3.603579580000000,109,0x00,0x96
3.603591620000000,109,0x00,0x91
3.603603640000000,109,0x00,0x8E
3.603615680000000,109,0x00,0x8A
3.603627720000000,109,0x00,0x85
3.603639740000000,109,0x00,0x7E
3.603651780000000,109,0x00,0x79
3.603663800000000,109,0x00,0x75
3.603675840000000,109,0x00,0x6E
3.603687880000000,109,0x00,0x6D
3.603699900000000,109,0x00,0x6B
3.603711940000000,109,0x00,0x6D
3.603723960000000,109,0x00,0x70
3.603736000000000,109,0x00,0x71
3.603748020000000,109,0x00,0x75
3.603760060000000,109,0x00,0x77
3.603772080000000,109,0x00,0x78
3.603784120000000,109,0x00,0x7C
3.603796140000000,109,0x00,0x86
3.603808180000000,109,0x00,0x8D
3.603820200000000,109,0x00,0x8D
3.603832240000000,109,0x00,0x8B
3.603844280000000,109,0x00,0x88
3.603856300000000,109,0x00,0x85
3.603868340000000,109,0x00,0x7E
3.603880360000000,109,0x00,0x79
3.603892400000000,109,0x00,0x71
3.603904440000000,109,0x00,0x6B
3.603916460000000,109,0x00,0x6C
3.603928500000000,109,0x00,0x6D
3.603940540000000,109,0x00,0x6F
3.603952560000000,109,0x00,0x71
3.603964600000000,109,0x00,0x71
3.603976620000000,109,0x00,0x74
3.603988660000000,109,0x00,0x76
3.604000700000000,109,0x00,0x76
3.604012720000000,109,0x00,0x7B
3.604024760000000,109,0x00,0x7E
3.604036780000000,109,0x00,0x7F
3.604048820000000,109,0x00,0x80
3.604060860000000,109,0x00,0x83
3.604072880000000,109,0x00,0x85
3.604084920000000,109,0x00,0x84
3.604096960000000,109,0x00,0x82
3.604108980000000,109,0x00,0x81
3.604121020000000,109,0x00,0x86
3.604133060000000,109,0x00,0x8C
3.604145080000000,109,0x00,0x92
3.604157120000000,109,0x00,0x97
3.604169140000000,109,0x00,0x9D
3.604181180000000,109,0x00,0xA5
3.604193200000000,109,0x00,0xAD
3.604205240000000,109,0x00,0xB4
3.604217280000000,109,0x00,0xBB
3.604229300000000,109,0x00,0xC5
3.604241340000000,109,0x00,0xCB
3.604253380000000,109,0x00,0xD0
3.604265400000000,109,0x00,0xD6
3.604277440000000,109,0x00,0xDA
3.604289480000000,109,0x00,0xE0
3.604301500000000,109,0x00,0xE2
3.604313520000000,109,0x00,0xE4
3.604325560000000,109,0x00,0xE8
3.604337600000000,109,0x00,0xEA
3.604349620000000,109,0x00,0xEB
3.604361660000000,109,0x00,0xEE
3.604379420000000,109,0x00,0xEE
3.604391460000000,109,0x00,0xF0
3.604403480000000,109,0x00,0xF2
3.604415520000000,109,0x00,0xF2
3.604427540000000,109,0x00,0xF3
3.604439580000000,109,0x00,0xF4
3.604451620000000,109,0x00,0xF5
3.604463640000000,109,0x00,0xF5
3.604475680000000,109,0x00,0xF5
3.604487700000000,109,0x00,0xF6
3.604499740000000,109,0x00,0xF6
3.604511780000000,109,0x00,0xF6
3.604523800000000,109,0x00,0xF6
3.604535840000000,109,0x00,0xF7
3.604547860000000,109,0x00,0xF5
3.604559900000000,109,0x00,0xED
3.604571940000000,109,0x00,0xEA
3.604583960000000,109,0x00,0xEA
3.604596000000000,109,0x00,0xE6
3.604608020000000,109,0x00,0xE4
3.604620060000000,109,0x00,0xE2
3.604632080000000,109,0x00,0xDF
3.604644120000000,109,0x00,0xDA
3.604656140000000,109,0x00,0xD7
3.604668180000000,109,0x00,0xD4
3.604680220000000,109,0x00,0xD0
3.604692240000000,109,0x00,0xCB
3.604704280000000,109,0x00,0xC6
3.604716300000000,109,0x00,0xC0
3.604728340000000,109,0x00,0xBD
3.604740360000000,109,0x00,0xB8
3.604752400000000,109,0x00,0xB5
3.604764440000000,109,0x00,0xB3
3.604776460000000,109,0x00,0xB1
3.604788500000000,109,0x00,0xAD
3.604800520000000,109,0x00,0xAB
3.604812560000000,109,0x00,0xA7
3.604824600000000,109,0x00,0xA5
3.604836620000000,109,0x00,0x9F
3.604848640000000,109,0x00,0x9F
3.604860680000000,109,0x00,0x9F
3.604872720000000,109,0x00,0x9E
3.604884740000000,109,0x00,0x9A
3.604896780000000,109,0x00,0x95
3.604908800000000,109,0x00,0x91
3.604920840000000,109,0x00,0x90
3.604932860000000,109,0x00,0x8C
3.604944900000000,109,0x00,0x8D
3.604956940000000,109,0x00,0x8F
3.604968960000000,109,0x00,0x8F
3.604981000000000,109,0x00,0x8D
3.604993020000000,109,0x00,0x88
3.605005060000000,109,0x00,0x85
3.605017080000000,109,0x00,0x84
3.605029120000000,109,0x00,0x7F
3.605041160000000,109,0x00,0x7E
3.605053180000000,109,0x00,0x7B
3.605065220000000,109,0x00,0x7C
3.605077260000000,109,0x00,0x77
3.605089280000000,109,0x00,0x74
3.605101320000000,109,0x00,0x73
3.605113340000000,109,0x00,0x76
3.605125380000000,109,0x00,0x76
3.605137400000000,109,0x00,0x76
3.605149440000000,109,0x00,0x77
3.605161460000000,109,0x00,0x77
3.605173500000000,109,0x00,0x78
3.605185540000000,109,0x00,0x79
3.605197560000000,109,0x00,0x79
3.605209600000000,109,0x00,0x79
3.605221620000000,109,0x00,0x79
3.605233660000000,109,0x00,0x7B
3.605245700000000,109,0x00,0x7B
3.605257740000000,109,0x00,0x79
3.605269760000000,109,0x00,0x7B
3.605281800000000,109,0x00,0x79
3.605293840000000,109,0x00,0x76
3.605305860000000,109,0x00,0x72
3.605317900000000,109,0x00,0x72
3.605329940000000,109,0x00,0x75
3.605341960000000,109,0x00,0x7D
3.605354000000000,109,0x00,0x82
3.605366020000000,109,0x00,0x82
3.605378060000000,109,0x00,0x7F
3.605397040000000,109,0x00,0x80
3.605409060000000,109,0x00,0x81
3.605421100000000,109,0x00,0x80
3.605433120000000,109,0x00,0x7F
3.605445160000000,109,0x00,0x86
3.605457200000000,109,0x00,0x8B
3.605469240000000,109,0x00,0x8E
3.605481260000000,109,0x00,0x8A
3.605493300000000,109,0x00,0x85
3.605505320000000,109,0x00,0x7C
3.605517360000000,109,0x00,0x70
3.605529400000000,109,0x00,0x6B
3.605541420000000,109,0x00,0x6D
3.605553460000000,109,0x00,0x6A
3.605565500000000,109,0x00,0x6C
3.605577520000000,109,0x00,0x72
3.605589560000000,109,0x00,0x79
3.605601580000000,109,0x00,0x81
3.605613620000000,109,0x00,0x8C
3.605625660000000,109,0x00,0x8F
3.605637680000000,109,0x00,0x92
3.605649720000000,109,0x00,0x92
3.605661740000000,109,0x00,0x8F
3.605673780000000,109,0x00,0x8C
3.605685800000000,109,0x00,0x8C
3.605697840000000,109,0x00,0x87
3.605709860000000,109,0x00,0x82
3.605721900000000,109,0x00,0x7E
3.605733940000000,109,0x00,0x78
3.605745980000000,109,0x00,0x71
3.605758000000000,109,0x00,0x6E
3.605770040000000,109,0x00,0x6F
3.605782060000000,109,0x00,0x72
3.605794100000000,109,0x00,0x75
3.605806140000000,109,0x00,0x74
3.605818160000000,109,0x00,0x77
3.605830200000000,109,0x00,0x7C
3.605842240000000,109,0x00,0x81
3.605854260000000,109,0x00,0x84
3.605866300000000,109,0x00,0x88
3.605878320000000,109,0x00,0x8E
3.605890360000000,109,0x00,0x94
3.605902400000000,109,0x00,0x96
3.605914420000000,109,0x00,0x96
3.605926460000000,109,0x00,0x99
3.605938480000000,109,0x00,0x95
3.605950520000000,109,0x00,0x90
3.605962560000000,109,0x00,0x89
3.605974580000000,109,0x00,0x82
3.605986620000000,109,0x00,0x7C
3.605998640000000,109,0x00,0x74
3.606010680000000,109,0x00,0x6F
3.606022720000000,109,0x00,0x6B
3.606034740000000,109,0x00,0x6A
3.606046780000000,109,0x00,0x6F
3.606058800000000,109,0x00,0x6F
3.606070840000000,109,0x00,0x71
3.606082880000000,109,0x00,0x71
3.606094900000000,109,0x00,0x70
3.606106940000000,109,0x00,0x73
3.606118960000000,109,0x00,0x7E
3.606131000000000,109,0x00,0x85
3.606143020000000,109,0x00,0x88
3.606155060000000,109,0x00,0x8C
3.606167080000000,109,0x00,0x8B
3.606179120000000,109,0x00,0x8A
3.606191140000000,109,0x00,0x83
3.606203180000000,109,0x00,0x7E
3.606215220000000,109,0x00,0x76
3.606227240000000,109,0x00,0x6F
3.606239280000000,109,0x00,0x6C
3.606251300000000,109,0x00,0x6F
3.606263340000000,109,0x00,0x71
3.606275360000000,109,0x00,0x73
3.606287380000000,109,0x00,0x70
3.606299420000000,109,0x00,0x72
3.606311460000000,109,0x00,0x75
3.606323480000000,109,0x00,0x73
3.606335500000000,109,0x00,0x74
3.606347540000000,109,0x00,0x75
3.606359580000000,109,0x00,0x76
3.606371600000000,109,0x00,0x78
3.606383640000000,109,0x00,0x7D
3.606395660000000,109,0x00,0x81
3.606412500000000,109,0x00,0x85
3.606424540000000,109,0x00,0x86
3.606436560000000,109,0x00,0x85
3.606448600000000,109,0x00,0x88
3.606460620000000,109,0x00,0x8A
3.606472660000000,109,0x00,0x90
3.606484680000000,109,0x00,0x92
3.606496720000000,109,0x00,0x98
3.606508760000000,109,0x00,0x9F
3.606520780000000,109,0x00,0xA3
3.606532820000000,109,0x00,0xAC
3.606544840000000,109,0x00,0xB3
3.606556880000000,109,0x00,0xBA
3.606568920000000,109,0x00,0xC3
3.606580940000000,109,0x00,0xC9
3.606592980000000,109,0x00,0xD0
3.606605000000000,109,0x00,0xD6
3.606617040000000,109,0x00,0xDB
3.606629080000000,109,0x00,0xDF
3.606641100000000,109,0x00,0xE2
3.606653140000000,109,0x00,0xE5
3.606665160000000,109,0x00,0xE7
3.606677200000000,109,0x00,0xEA
3.606689240000000,109,0x00,0xEB
3.606701260000000,109,0x00,0xEE
3.606713300000000,109,0x00,0xF0
3.606725340000000,109,0x00,0xF0
3.606737360000000,109,0x00,0xF2
3.606749400000000,109,0x00,0xF3
3.606761440000000,109,0x00,0xF4
3.606773460000000,109,0x00,0xF5
3.606785500000000,109,0x00,0xF4
3.606797540000000,109,0x00,0xF5
3.606809560000000,109,0x00,0xF6
3.606821600000000,109,0x00,0xF7
3.606833620000000,109,0x00,0xF5
3.606845660000000,109,0x00,0xF6
3.606857680000000,109,0x00,0xF6
3.606869720000000,109,0x00,0xF6
3.606881760000000,109,0x00,0xEB
3.606893780000000,109,0x00,0xEA
3.606905820000000,109,0x00,0xE9
3.606917840000000,109,0x00,0xE4
3.606929880000000,109,0x00,0xE3
3.606941900000000,109,0x00,0xE1
3.606953940000000,109,0x00,0xDD
3.606965980000000,109,0x00,0xDA
3.606978000000000,109,0x00,0xD7
3.606990040000000,109,0x00,0xD3
3.607002060000000,109,0x00,0xD0
3.607014100000000,109,0x00,0xCB
3.607026120000000,109,0x00,0xC6
3.607038160000000,109,0x00,0xC1
3.607050180000000,109,0x00,0xBC
3.607062220000000,109,0x00,0xB7
3.607074260000000,109,0x00,0xB4
3.607086280000000,109,0x00,0xB1
3.607098320000000,109,0x00,0xAF
3.607110340000000,109,0x00,0xAB
3.607122380000000,109,0x00,0xA6
3.607134400000000,109,0x00,0x9E
3.607146440000000,109,0x00,0x98
3.607158460000000,109,0x00,0x90
3.607170500000000,109,0x00,0x8E
3.607182520000000,109,0x00,0x8C
3.607194560000000,109,0x00,0x8C
3.607206600000000,109,0x00,0x89
3.607218640000000,109,0x00,0x84
3.607230660000000,109,0x00,0x81
3.607242700000000,109,0x00,0x7D
3.607254720000000,109,0x00,0x7A
3.607266760000000,109,0x00,0x7A
3.607278800000000,109,0x00,0x7B
3.607290820000000,109,0x00,0x7A
3.607302860000000,109,0x00,0x79
3.607314880000000,109,0x00,0x74
3.607326920000000,109,0x00,0x72
3.607338960000000,109,0x00,0x71
3.607350980000000,109,0x00,0x6F
3.607363020000000,109,0x00,0x6E
3.607375040000000,109,0x00,0x71
3.607387080000000,109,0x00,0x6F
3.607399100000000,109,0x00,0x70
3.607414560000000,109,0x00,0x71
3.607426580000000,109,0x00,0x70
3.607438620000000,109,0x00,0x72
3.607450640000000,109,0x00,0x72
3.607462680000000,109,0x00,0x72
3.607474700000000,109,0x00,0x75
3.607486740000000,109,0x00,0x76
3.607498780000000,109,0x00,0x78
3.607510820000000,109,0x00,0x77
3.607522840000000,109,0x00,0x78
3.607534880000000,109,0x00,0x78
3.607546900000000,109,0x00,0x77
3.607558940000000,109,0x00,0x78
3.607570980000000,109,0x00,0x78
3.607583000000000,109,0x00,0x77
3.607595040000000,109,0x00,0x75
3.607607060000000,109,0x00,0x73
3.607619100000000,109,0x00,0x71
3.607631140000000,109,0x00,0x6F
3.607643160000000,109,0x00,0x6E
3.607655200000000,109,0x00,0x6E
3.607667220000000,109,0x00,0x72
3.607679260000000,109,0x00,0x76
3.607691280000000,109,0x00,0x74
3.607703320000000,109,0x00,0x70
3.607715360000000,109,0x00,0x6D
3.607727400000000,109,0x00,0x6D
3.607739420000000,109,0x00,0x6B
3.607751460000000,109,0x00,0x6E
3.607763480000000,109,0x00,0x74
3.607775520000000,109,0x00,0x7B
3.607787560000000,109,0x00,0x83
3.607799580000000,109,0x00,0x88
3.607811620000000,109,0x00,0x89
3.607823640000000,109,0x00,0x85
3.607835680000000,109,0x00,0x79
3.607847720000000,109,0x00,0x73
3.607859760000000,109,0x00,0x72
3.607871780000000,109,0x00,0x71
3.607883820000000,109,0x00,0x6F
3.607895840000000,109,0x00,0x6E
3.607907880000000,109,0x00,0x6F
3.607919900000000,109,0x00,0x73
3.607931940000000,109,0x00,0x7E
3.607943960000000,109,0x00,0x85
3.607956000000000,109,0x00,0x8B
3.607968040000000,109,0x00,0x8E
3.607980060000000,109,0x00,0x90
3.607992100000000,109,0x00,0x90
3.608004140000000,109,0x00,0x90
3.608016160000000,109,0x00,0x8D
3.608028180000000,109,0x00,0x89
3.608040220000000,109,0x00,0x86
3.608052260000000,109,0x00,0x82
3.608064280000000,109,0x00,0x7B
3.608076320000000,109,0x00,0x75
3.608088340000000,109,0x00,0x75
3.608100380000000,109,0x00,0x74
3.608112400000000,109,0x00,0x73
3.608124440000000,109,0x00,0x71
3.608136460000000,109,0x00,0x70
3.608148500000000,109,0x00,0x74
3.608160540000000,109,0x00,0x74
3.608172560000000,109,0x00,0x74
3.608184600000000,109,0x00,0x77
3.608196620000000,109,0x00,0x7B
3.608208660000000,109,0x00,0x84
3.608220700000000,109,0x00,0x8B
3.608232720000000,109,0x00,0x8F
3.608244760000000,109,0x00,0x94
3.608256800000000,109,0x00,0x97
3.608268820000000,109,0x00,0x94
3.608280860000000,109,0x00,0x92
3.608292880000000,109,0x00,0x8E
3.608304920000000,109,0x00,0x87
3.608316960000000,109,0x00,0x7F
3.608328980000000,109,0x00,0x78
3.608341020000000,109,0x00,0x70
3.608353060000000,109,0x00,0x6D
3.608365080000000,109,0x00,0x6E
3.608377120000000,109,0x00,0x6F
3.608389160000000,109,0x00,0x72
3.608401180000000,109,0x00,0x71
3.608413220000000,109,0x00,0x6E
3.608430120000000,109,0x00,0x6F
3.608442160000000,109,0x00,0x74
3.608454180000000,109,0x00,0x7C
3.608466220000000,109,0x00,0x7F
3.608478240000000,109,0x00,0x85
3.608490280000000,109,0x00,0x89
3.608502320000000,109,0x00,0x8A
3.608514340000000,109,0x00,0x88
3.608526380000000,109,0x00,0x85
3.608538400000000,109,0x00,0x80
3.608550440000000,109,0x00,0x78
3.608562480000000,109,0x00,0x73
3.608574500000000,109,0x00,0x74
3.608586540000000,109,0x00,0x72
3.608598560000000,109,0x00,0x72
3.608610600000000,109,0x00,0x70
3.608622640000000,109,0x00,0x73
3.608634660000000,109,0x00,0x74
3.608646700000000,109,0x00,0x72
3.608658740000000,109,0x00,0x73
3.608670760000000,109,0x00,0x74
3.608682800000000,109,0x00,0x73
3.608694820000000,109,0x00,0x71
3.608706860000000,109,0x00,0x76
3.608718900000000,109,0x00,0x7B
3.608730920000000,109,0x00,0x83
3.608742960000000,109,0x00,0x86
3.608754980000000,109,0x00,0x88
3.608767020000000,109,0x00,0x8A
3.608779040000000,109,0x00,0x8D
3.608791080000000,109,0x00,0x90
3.608803120000000,109,0x00,0x92
3.608815140000000,109,0x00,0x93
3.608827180000000,109,0x00,0x9B
3.608839200000000,109,0x00,0xA0
3.608851240000000,109,0x00,0xA4
3.608863280000000,109,0x00,0xAC
3.608875300000000,109,0x00,0xB3
3.608887340000000,109,0x00,0xBB
3.608899360000000,109,0x00,0xC2
3.608911400000000,109,0x00,0xC9
3.608923440000000,109,0x00,0xD0
3.608935460000000,109,0x00,0xD6
3.608947500000000,109,0x00,0xDA
3.608959520000000,109,0x00,0xDF
3.608971560000000,109,0x00,0xE2
3.608983600000000,109,0x00,0xE5
3.608995620000000,109,0x00,0xE7
3.609007660000000,109,0x00,0xEA
3.609019680000000,109,0x00,0xEC
3.609031720000000,109,0x00,0xEE
3.609043760000000,109,0x00,0xEF
3.609055780000000,109,0x00,0xF1
3.609067820000000,109,0x00,0xF2
3.609079840000000,109,0x00,0xF3
3.609091880000000,109,0x00,0xF5
3.609103900000000,109,0x00,0xF4
3.609115940000000,109,0x00,0xF6
3.609127980000000,109,0x00,0xF6
3.609140000000000,109,0x00,0xF6
3.609152040000000,109,0x00,0xF6
3.609164060000000,109,0x00,0xF6
3.609176100000000,109,0x00,0xF7
3.609188140000000,109,0x00,0xF6
3.609200160000000,109,0x00,0xEA
3.609212200000000,109,0x00,0xE8
3.609224220000000,109,0x00,0xE5
3.609236260000000,109,0x00,0xE3
3.609248300000000,109,0x00,0xE2
3.609260320000000,109,0x00,0xDF
3.609272360000000,109,0x00,0xDD
3.609284400000000,109,0x00,0xD8
3.609296420000000,109,0x00,0xD5
3.609308460000000,109,0x00,0xD2
3.609320500000000,109,0x00,0xCE
3.609332520000000,109,0x00,0xCB
3.609344560000000,109,0x00,0xC5
3.609356580000000,109,0x00,0xC0
3.609368620000000,109,0x00,0xB9
3.609380640000000,109,0x00,0xB2
3.609392680000000,109,0x00,0xAF
3.609404720000000,109,0x00,0xAB
3.609416740000000,109,0x00,0xA7
3.609428780000000,109,0x00,0xA2
3.609445700000000,109,0x00,0x97
3.609457720000000,109,0x00,0x8F
3.609469760000000,109,0x00,0x87
3.609481800000000,109,0x00,0x80
3.609493820000000,109,0x00,0x7D
3.609505860000000,109,0x00,0x7B
3.609517880000000,109,0x00,0x7B
3.609529920000000,109,0x00,0x79
3.609541960000000,109,0x00,0x77
3.609553980000000,109,0x00,0x72
3.609566020000000,109,0x00,0x71
3.609578040000000,109,0x00,0x6D
3.609590080000000,109,0x00,0x6E
3.609602120000000,109,0x00,0x70
3.609614140000000,109,0x00,0x6F
3.609626180000000,109,0x00,0x6E
3.609638220000000,109,0x00,0x6D
3.609650240000000,109,0x00,0x68
3.609662280000000,109,0x00,0x65
3.609674300000000,109,0x00,0x61
3.609686340000000,109,0x00,0x64
3.609698360000000,109,0x00,0x6A
3.609710400000000,109,0x00,0x6C
3.609722420000000,109,0x00,0x6F
3.609734460000000,109,0x00,0x72
3.609746500000000,109,0x00,0x74
3.609758520000000,109,0x00,0x75
3.609770560000000,109,0x00,0x73
3.609782580000000,109,0x00,0x72
3.609794620000000,109,0x00,0x75
3.609806640000000,109,0x00,0x78
3.609818680000000,109,0x00,0x78
3.609830720000000,109,0x00,0x7B
3.609842740000000,109,0x00,0x7E
3.609854780000000,109,0x00,0x80
3.609866800000000,109,0x00,0x7D
3.609878840000000,109,0x00,0x7C
3.609890860000000,109,0x00,0x7C
3.609902900000000,109,0x00,0x79
3.609914940000000,109,0x00,0x75
3.609926960000000,109,0x00,0x70
3.609939000000000,109,0x00,0x6E
3.609951020000000,109,0x00,0x6D
3.609963060000000,109,0x00,0x6A
3.609975100000000,109,0x00,0x6A
3.609987120000000,109,0x00,0x6D
3.609999160000000,109,0x00,0x6E
3.610011200000000,109,0x00,0x6E
3.610023220000000,109,0x00,0x6A
3.610035260000000,109,0x00,0x64
3.610047280000000,109,0x00,0x60
3.610059320000000,109,0x00,0x60
3.610071340000000,109,0x00,0x63
3.610083380000000,109,0x00,0x69
3.610095400000000,109,0x00,0x6E
3.610107440000000,109,0x00,0x74
3.610119480000000,109,0x00,0x7A
3.610131500000000,109,0x00,0x83
3.610143540000000,109,0x00,0x85
3.610155560000000,109,0x00,0x80
3.610167600000000,109,0x00,0x7E
3.610179640000000,109,0x00,0x7A
3.610191660000000,109,0x00,0x77
3.610203700000000,109,0x00,0x74
3.610215740000000,109,0x00,0x6F
3.610227760000000,109,0x00,0x6B
3.610239800000000,109,0x00,0x6A
3.610251820000000,109,0x00,0x6E
3.610263860000000,109,0x00,0x75
3.610275900000000,109,0x00,0x7C
3.610287920000000,109,0x00,0x82
3.610299960000000,109,0x00,0x87
3.610311980000000,109,0x00,0x8D
3.610324000000000,109,0x00,0x8D
3.610336040000000,109,0x00,0x8D
3.610348060000000,109,0x00,0x8A
3.610360100000000,109,0x00,0x8A
3.610372120000000,109,0x00,0x88
3.610384160000000,109,0x00,0x83
3.610396180000000,109,0x00,0x7F
3.610408220000000,109,0x00,0x7B
3.610420260000000,109,0x00,0x78
3.610432280000000,109,0x00,0x73
3.610449880000000,109,0x00,0x6E
3.610461920000000,109,0x00,0x6D
3.610473940000000,109,0x00,0x6F
3.610485980000000,109,0x00,0x6F
3.610498020000000,109,0x00,0x6D
3.610510040000000,109,0x00,0x6C
3.610522080000000,109,0x00,0x6A
3.610534100000000,109,0x00,0x70
3.610546140000000,109,0x00,0x74
3.610558160000000,109,0x00,0x7F
3.610570200000000,109,0x00,0x86
3.610582240000000,109,0x00,0x8C
3.610594260000000,109,0x00,0x90
3.610606300000000,109,0x00,0x94
3.610618320000000,109,0x00,0x96
3.610630360000000,109,0x00,0x93
3.610642380000000,109,0x00,0x8C
3.610654420000000,109,0x00,0x85
3.610666440000000,109,0x00,0x7D
3.610678480000000,109,0x00,0x77
3.610690520000000,109,0x00,0x73
3.610702540000000,109,0x00,0x72
3.610714560000000,109,0x00,0x71
3.610726600000000,109,0x00,0x72
3.610738640000000,109,0x00,0x70
3.610750660000000,109,0x00,0x6F
3.610762700000000,109,0x00,0x71
3.610774720000000,109,0x00,0x74
3.610786760000000,109,0x00,0x76
3.610798780000000,109,0x00,0x79
3.610810820000000,109,0x00,0x7E
3.610822840000000,109,0x00,0x84
3.610834880000000,109,0x00,0x84
3.610846900000000,109,0x00,0x86
3.610858940000000,109,0x00,0x86
3.610870960000000,109,0x00,0x83
3.610882980000000,109,0x00,0x7F
3.610895020000000,109,0x00,0x7B
3.610907040000000,109,0x00,0x76
3.610919080000000,109,0x00,0x76
3.610931100000000,109,0x00,0x71
3.610943120000000,109,0x00,0x71
3.610955160000000,109,0x00,0x72
3.610967180000000,109,0x00,0x70
3.610979220000000,109,0x00,0x6F
3.610991240000000,109,0x00,0x70
3.611003280000000,109,0x00,0x6F
3.611015300000000,109,0x00,0x6F
3.611027340000000,109,0x00,0x71
3.611039360000000,109,0x00,0x74
3.611051380000000,109,0x00,0x7A
3.611063420000000,109,0x00,0x7D
3.611075440000000,109,0x00,0x81
3.611087480000000,109,0x00,0x87
3.611099500000000,109,0x00,0x8E
3.611111540000000,109,0x00,0x8F
3.611123560000000,109,0x00,0x90
3.611135600000000,109,0x00,0x94
3.611147640000000,109,0x00,0x99
3.611159660000000,109,0x00,0x9E
3.611171680000000,109,0x00,0xA1
3.611183720000000,109,0x00,0xA5
3.611195740000000,109,0x00,0xAC
3.611207760000000,109,0x00,0xB4
3.611219800000000,109,0x00,0xBC
3.611231820000000,109,0x00,0xC2
3.611243840000000,109,0x00,0xCA
3.611255880000000,109,0x00,0xD3
3.611267900000000,109,0x00,0xD5
3.611279920000000,109,0x00,0xDB
3.611291960000000,109,0x00,0xDF
3.611304000000000,109,0x00,0xE3
3.611316020000000,109,0x00,0xE5
3.611328060000000,109,0x00,0xE6
3.611340080000000,109,0x00,0xEA
3.611352120000000,109,0x00,0xEC
3.611364140000000,109,0x00,0xEF
3.611376180000000,109,0x00,0xEF
3.611388200000000,109,0x00,0xF0
3.611400240000000,109,0x00,0xF2
3.611412260000000,109,0x00,0xF3
3.611424300000000,109,0x00,0xF3
3.611436320000000,109,0x00,0xF5
3.611448340000000,109,0x00,0xF5
3.611467320000000,109,0x00,0xF5
3.611479360000000,109,0x00,0xF5
3.611491380000000,109,0x00,0xF6
3.611503420000000,109,0x00,0xF6
3.611515460000000,109,0x00,0xF6
3.611527480000000,109,0x00,0xEB
3.611539520000000,109,0x00,0xE7
3.611551540000000,109,0x00,0xE6
3.611563580000000,109,0x00,0xE3
3.611575600000000,109,0x00,0xE0
3.611587640000000,109,0x00,0xDD
3.611599660000000,109,0x00,0xDA
3.611611700000000,109,0x00,0xD6
3.611623740000000,109,0x00,0xD2
3.611635760000000,109,0x00,0xCF
3.611647800000000,109,0x00,0xCD
3.611659820000000,109,0x00,0xC8
3.611671860000000,109,0x00,0xC2
3.611683880000000,109,0x00,0xBB
3.611695920000000,109,0x00,0xB4
3.611707960000000,109,0x00,0xA8
3.611719980000000,109,0x00,0xA2
3.611732020000000,109,0x00,0x9D
3.611744040000000,109,0x00,0x98
3.611756080000000,109,0x00,0x90
3.611768120000000,109,0x00,0x89
3.611780140000000,109,0x00,0x81
3.611792160000000,109,0x00,0x7B
3.611804200000000,109,0x00,0x77
3.611816240000000,109,0x00,0x75
3.611828260000000,109,0x00,0x76
3.611840300000000,109,0x00,0x74
3.611852320000000,109,0x00,0x74
3.611864360000000,109,0x00,0x73
3.611876400000000,109,0x00,0x72
3.611888420000000,109,0x00,0x6F
3.611900460000000,109,0x00,0x6B
3.611912480000000,109,0x00,0x6D
3.611924520000000,109,0x00,0x70
3.611936540000000,109,0x00,0x71
3.611948580000000,109,0x00,0x70
3.611960620000000,109,0x00,0x6C
3.611972640000000,109,0x00,0x6B
3.611984680000000,109,0x00,0x64
3.611996700000000,109,0x00,0x5E
3.612008740000000,109,0x00,0x5E
3.612020780000000,109,0x00,0x68
3.612032800000000,109,0x00,0x6D
3.612044840000000,109,0x00,0x74
3.612056860000000,109,0x00,0x7B
3.612068900000000,109,0x00,0x7E
3.612080920000000,109,0x00,0x81
3.612092960000000,109,0x00,0x7F
3.612104980000000,109,0x00,0x7D
3.612117020000000,109,0x00,0x7F
3.612129060000000,109,0x00,0x80
3.612141080000000,109,0x00,0x83
3.612153100000000,109,0x00,0x87
3.612165140000000,109,0x00,0x8B
3.612177180000000,109,0x00,0x8E
3.612189200000000,109,0x00,0x8D
3.612201240000000,109,0x00,0x8B
3.612213260000000,109,0x00,0x89
3.612225300000000,109,0x00,0x84
3.612237320000000,109,0x00,0x7F
3.612249360000000,109,0x00,0x78
3.612261400000000,109,0x00,0x71
3.612273420000000,109,0x00,0x6E
3.612285460000000,109,0x00,0x6A
3.612297480000000,109,0x00,0x68
3.612309520000000,109,0x00,0x6A
3.612321560000000,109,0x00,0x6C
3.612333580000000,109,0x00,0x6D
3.612345620000000,109,0x00,0x6B
3.612357640000000,109,0x00,0x66
3.612369680000000,109,0x00,0x61
3.612381720000000,109,0x00,0x5E
3.612393740000000,109,0x00,0x61
3.612405760000000,109,0x00,0x64
3.612417800000000,109,0x00,0x67
3.612429840000000,109,0x00,0x69
3.612441860000000,109,0x00,0x6B
3.612453900000000,109,0x00,0x72
3.612470820000000,109,0x00,0x7A
3.612482840000000,109,0x00,0x7F
3.612494880000000,109,0x00,0x83
3.612506900000000,109,0x00,0x84
3.612518940000000,109,0x00,0x82
3.612530960000000,109,0x00,0x7B
3.612543000000000,109,0x00,0x74
3.612555040000000,109,0x00,0x6D
3.612567060000000,109,0x00,0x66
3.612579100000000,109,0x00,0x62
3.612591120000000,109,0x00,0x67
3.612603160000000,109,0x00,0x6F
3.612615180000000,109,0x00,0x76
3.612627220000000,109,0x00,0x7B
3.612639260000000,109,0x00,0x82
3.612651280000000,109,0x00,0x85
3.612663320000000,109,0x00,0x86
3.612675340000000,109,0x00,0x83
3.612687380000000,109,0x00,0x84
3.612699420000000,109,0x00,0x87
3.612711440000000,109,0x00,0x87
3.612723460000000,109,0x00,0x87
3.612735500000000,109,0x00,0x85
3.612747540000000,109,0x00,0x82
3.612759560000000,109,0x00,0x7B
3.612771600000000,109,0x00,0x73
3.612783620000000,109,0x00,0x71
3.612795660000000,109,0x00,0x70
3.612807680000000,109,0x00,0x6F
3.612819700000000,109,0x00,0x6E
3.612831720000000,109,0x00,0x68
3.612843760000000,109,0x00,0x64
3.612855800000000,109,0x00,0x63
3.612867820000000,109,0x00,0x63
3.612879860000000,109,0x00,0x6A
3.612891880000000,109,0x00,0x74
3.612903920000000,109,0x00,0x7C
3.612915940000000,109,0x00,0x83
3.612927980000000,109,0x00,0x8B
3.612940000000000,109,0x00,0x91
3.612952040000000,109,0x00,0x97
3.612964080000000,109,0x00,0x96
3.612976100000000,109,0x00,0x94
3.612988120000000,109,0x00,0x8E
3.613000160000000,109,0x00,0x87
3.613012200000000,109,0x00,0x7E
3.613024220000000,109,0x00,0x77
3.613036240000000,109,0x00,0x75
3.613048280000000,109,0x00,0x71
3.613060320000000,109,0x00,0x6D
3.613072340000000,109,0x00,0x6F
3.613084380000000,109,0x00,0x71
3.613096400000000,109,0x00,0x72
3.613108440000000,109,0x00,0x70
3.613120480000000,109,0x00,0x72
3.613132500000000,109,0x00,0x76
3.613144540000000,109,0x00,0x7B
3.613156560000000,109,0x00,0x7B
3.613168600000000,109,0x00,0x7D
3.613180620000000,109,0x00,0x84
3.613192660000000,109,0x00,0x87
3.613204700000000,109,0x00,0x87
3.613216720000000,109,0x00,0x85
3.613228760000000,109,0x00,0x80
3.613240780000000,109,0x00,0x7C
3.613252820000000,109,0x00,0x76
3.613264860000000,109,0x00,0x75
3.613276880000000,109,0x00,0x73
3.613288920000000,109,0x00,0x6C
3.613300940000000,109,0x00,0x6C
3.613312980000000,109,0x00,0x6D
3.613325000000000,109,0x00,0x6E
3.613337040000000,109,0x00,0x6F
3.613349060000000,109,0x00,0x6A
3.613361080000000,109,0x00,0x6F
3.613373120000000,109,0x00,0x73
3.613385160000000,109,0x00,0x76
3.613397180000000,109,0x00,0x7A
3.613409220000000,109,0x00,0x81
3.613421260000000,109,0x00,0x89
3.613433280000000,109,0x00,0x8C
3.613445320000000,109,0x00,0x8C
3.613457340000000,109,0x00,0x8F
3.613469380000000,109,0x00,0x94
3.613484740000000,109,0x00,0x99
3.613496780000000,109,0x00,0x9C
3.613508800000000,109,0x00,0x9F
3.613520840000000,109,0x00,0xA5
3.613532880000000,109,0x00,0xAE
3.613544900000000,109,0x00,0xB4
3.613556940000000,109,0x00,0xBD
3.613568960000000,109,0x00,0xC6
3.613581000000000,109,0x00,0xCC
3.613593040000000,109,0x00,0xD1
3.613605060000000,109,0x00,0xD6
3.613617100000000,109,0x00,0xDB
3.613629120000000,109,0x00,0xE0
3.613641160000000,109,0x00,0xE2
3.613653180000000,109,0x00,0xE5
3.613665220000000,109,0x00,0xE7
3.613677260000000,109,0x00,0xEB
3.613689280000000,109,0x00,0xEC
3.613701320000000,109,0x00,0xEF
3.613713340000000,109,0x00,0xF1
3.613725380000000,109,0x00,0xF1
3.613737420000000,109,0x00,0xF2
3.613749440000000,109,0x00,0xF2
3.613761480000000,109,0x00,0xF4
3.613773500000000,109,0x00,0xF4
3.613785540000000,109,0x00,0xF6
3.613797560000000,109,0x00,0xF6
3.613809600000000,109,0x00,0xF5
3.613821640000000,109,0x00,0xF5
3.613833660000000,109,0x00,0xF6
3.613845700000000,109,0x00,0xE9
3.613857740000000,109,0x00,0xE5
3.613869760000000,109,0x00,0xE5
3.613881780000000,109,0x00,0xE0
3.613893820000000,109,0x00,0xDF
3.613905860000000,109,0x00,0xDB
3.613917880000000,109,0x00,0xD8
3.613929900000000,109,0x00,0xD2
3.613941940000000,109,0x00,0xCF
3.613953980000000,109,0x00,0xCC
3.613966000000000,109,0x00,0xC8
3.613978040000000,109,0x00,0xC3
3.613990060000000,109,0x00,0xBC
3.614002100000000,109,0x00,0xB2
3.614014140000000,109,0x00,0xA8
3.614026160000000,109,0x00,0x9B
3.614038200000000,109,0x00,0x91
3.614050220000000,109,0x00,0x8A
3.614062260000000,109,0x00,0x84
3.614074300000000,109,0x00,0x80
3.614086320000000,109,0x00,0x78
3.614098360000000,109,0x00,0x75
3.614110380000000,109,0x00,0x72
3.614122420000000,109,0x00,0x71
3.614134440000000,109,0x00,0x71
3.614146480000000,109,0x00,0x74
3.614158500000000,109,0x00,0x76
3.614170540000000,109,0x00,0x77
3.614182560000000,109,0x00,0x7A
3.614194600000000,109,0x00,0x7A
3.614206640000000,109,0x00,0x76
3.614218660000000,109,0x00,0x73
3.614230700000000,109,0x00,0x74
3.614242720000000,109,0x00,0x78
3.614254760000000,109,0x00,0x7A
3.614266800000000,109,0x00,0x7B
3.614278820000000,109,0x00,0x7A
3.614290860000000,109,0x00,0x77
3.614302880000000,109,0x00,0x71
3.614314920000000,109,0x00,0x67
3.614326940000000,109,0x00,0x68
3.614338980000000,109,0x00,0x6E
3.614351020000000,109,0x00,0x78
3.614363040000000,109,0x00,0x82
3.614375080000000,109,0x00,0x8B
3.614387100000000,109,0x00,0x8F
3.614399140000000,109,0x00,0x91
3.614411180000000,109,0x00,0x92
3.614423200000000,109,0x00,0x8E
3.614435220000000,109,0x00,0x8D
3.614447260000000,109,0x00,0x8F
3.614459300000000,109,0x00,0x90
3.614471320000000,109,0x00,0x94
3.614483360000000,109,0x00,0x99
3.614500740000000,109,0x00,0x9D
3.614512780000000,109,0x00,0x9D
3.614524800000000,109,0x00,0x99
3.614536840000000,109,0x00,0x97
3.614548860000000,109,0x00,0x92
3.614560900000000,109,0x00,0x8C
3.614572920000000,109,0x00,0x82
3.614584960000000,109,0x00,0x76
3.614597000000000,109,0x00,0x70
3.614609020000000,109,0x00,0x6A
3.614621060000000,109,0x00,0x69
3.614633080000000,109,0x00,0x6A
3.614645120000000,109,0x00,0x6A
3.614657140000000,109,0x00,0x6C
3.614669180000000,109,0x00,0x70
3.614681220000000,109,0x00,0x6A
3.614693240000000,109,0x00,0x65
3.614705280000000,109,0x00,0x60
3.614717300000000,109,0x00,0x61
3.614729340000000,109,0x00,0x62
3.614741380000000,109,0x00,0x64
3.614753400000000,109,0x00,0x62
3.614765440000000,109,0x00,0x63
3.614777480000000,109,0x00,0x65
3.614789500000000,109,0x00,0x6E
3.614801540000000,109,0x00,0x74
3.614813560000000,109,0x00,0x7F
3.614825600000000,109,0x00,0x88
3.614837640000000,109,0x00,0x88
3.614849660000000,109,0x00,0x84
3.614861700000000,109,0x00,0x7B
3.614873720000000,109,0x00,0x73
3.614885760000000,109,0x00,0x69
3.614897800000000,109,0x00,0x62
3.614909820000000,109,0x00,0x60
3.614921860000000,109,0x00,0x67
3.614933900000000,109,0x00,0x6D
3.614945920000000,109,0x00,0x71
3.614957960000000,109,0x00,0x76
3.614969980000000,109,0x00,0x78
3.614982020000000,109,0x00,0x77
3.614994060000000,109,0x00,0x75
3.615006080000000,109,0x00,0x75
3.615018120000000,109,0x00,0x7D
3.615030160000000,109,0x00,0x83
3.615042180000000,109,0x00,0x86
3.615054220000000,109,0x00,0x8A
3.615066260000000,109,0x00,0x89
3.615078280000000,109,0x00,0x85
3.615090320000000,109,0x00,0x7F
3.615102340000000,109,0x00,0x7C
3.615114380000000,109,0x00,0x7B
3.615126420000000,109,0x00,0x76
3.615138440000000,109,0x00,0x71
3.615150480000000,109,0x00,0x6B
3.615162500000000,109,0x00,0x65
3.615174540000000,109,0x00,0x60
3.615186580000000,109,0x00,0x5B
3.615198600000000,109,0x00,0x5D
3.615210640000000,109,0x00,0x66
3.615222680000000,109,0x00,0x6D
3.615234700000000,109,0x00,0x75
3.615246740000000,109,0x00,0x7D
3.615258760000000,109,0x00,0x87
3.615270800000000,109,0x00,0x8F
3.615282840000000,109,0x00,0x94
3.615294860000000,109,0x00,0x98
3.615306900000000,109,0x00,0x9A
3.615318940000000,109,0x00,0x96
3.615330960000000,109,0x00,0x8E
3.615343000000000,109,0x00,0x85
3.615355040000000,109,0x00,0x7D
3.615367060000000,109,0x00,0x74
3.615379100000000,109,0x00,0x6F
3.615391140000000,109,0x00,0x6F
3.615403160000000,109,0x00,0x71
3.615415200000000,109,0x00,0x71
3.615427240000000,109,0x00,0x6E
3.615439260000000,109,0x00,0x6F
3.615451300000000,109,0x00,0x72
3.615463320000000,109,0x00,0x73
3.615475360000000,109,0x00,0x72
3.615487400000000,109,0x00,0x77
3.615504320000000,109,0x00,0x7D
3.615516360000000,109,0x00,0x85
3.615528380000000,109,0x00,0x8B
3.615540420000000,109,0x00,0x8B
3.615552460000000,109,0x00,0x88
3.615564480000000,109,0x00,0x83
3.615576520000000,109,0x00,0x7C
3.615588560000000,109,0x00,0x7B
3.615600580000000,109,0x00,0x79
3.615612620000000,109,0x00,0x6F
3.615624660000000,109,0x00,0x6B
3.615636680000000,109,0x00,0x6A
3.615648720000000,109,0x00,0x6B
3.615660740000000,109,0x00,0x6C
3.615672780000000,109,0x00,0x69
3.615684820000000,109,0x00,0x69
3.615696840000000,109,0x00,0x6F
3.615708880000000,109,0x00,0x71
3.615720900000000,109,0x00,0x77
3.615732940000000,109,0x00,0x7D
3.615744980000000,109,0x00,0x81
3.615757000000000,109,0x00,0x82
3.615769040000000,109,0x00,0x81
3.615781060000000,109,0x00,0x86
3.615793100000000,109,0x00,0x8C
3.615805140000000,109,0x00,0x92
3.615817160000000,109,0x00,0x98
3.615829200000000,109,0x00,0x9B
3.615841240000000,109,0x00,0xA2
3.615853260000000,109,0x00,0xA9
3.615865300000000,109,0x00,0xAF
3.615877320000000,109,0x00,0xB6
3.615889360000000,109,0x00,0xBF
3.615901400000000,109,0x00,0xC6
3.615913420000000,109,0x00,0xCD
3.615925460000000,109,0x00,0xD1
3.615937480000000,109,0x00,0xD7
3.615949520000000,109,0x00,0xDB
3.615961560000000,109,0x00,0xDD
3.615973580000000,109,0x00,0xE1
3.615985620000000,109,0x00,0xE4
3.615997660000000,109,0x00,0xE8
3.616009680000000,109,0x00,0xEA
3.616021720000000,109,0x00,0xEC
3.616033760000000,109,0x00,0xED
3.616045780000000,109,0x00,0xEE
3.616057820000000,109,0x00,0xF0
3.616069860000000,109,0x00,0xF2
3.616081880000000,109,0x00,0xF2
3.616093920000000,109,0x00,0xF3
3.616105960000000,109,0x00,0xF4
3.616118000000000,109,0x00,0xF4
3.616130020000000,109,0x00,0xF6
3.616142060000000,109,0x00,0xF5
3.616154100000000,109,0x00,0xF5
3.616166120000000,109,0x00,0xE7
3.616178160000000,109,0x00,0xE5
3.616190200000000,109,0x00,0xE4
3.616202220000000,109,0x00,0xDF
3.616214260000000,109,0x00,0xDD
3.616226300000000,109,0x00,0xD9
3.616238340000000,109,0x00,0xD4
3.616250360000000,109,0x00,0xCE
3.616262400000000,109,0x00,0xC9
3.616274440000000,109,0x00,0xC5
3.616286480000000,109,0x00,0xC0
3.616298500000000,109,0x00,0xBA
3.616310540000000,109,0x00,0xB2
3.616322580000000,109,0x00,0xA7
3.616334620000000,109,0x00,0x99
3.616346640000000,109,0x00,0x88
3.616358680000000,109,0x00,0x7D
3.616370720000000,109,0x00,0x77
3.616382740000000,109,0x00,0x76
3.616394780000000,109,0x00,0x73
3.616406820000000,109,0x00,0x71
3.616418840000000,109,0x00,0x6F
3.616430880000000,109,0x00,0x6F
3.616442920000000,109,0x00,0x6D
3.616454940000000,109,0x00,0x6F
3.616466980000000,109,0x00,0x72
3.616479020000000,109,0x00,0x7A
3.616491040000000,109,0x00,0x80
3.616503080000000,109,0x00,0x88
3.616520640000000,109,0x00,0x8A
3.616532680000000,109,0x00,0x89
3.616544700000000,109,0x00,0x84
3.616556740000000,109,0x00,0x84
3.616568760000000,109,0x00,0x88
3.616580800000000,109,0x00,0x8C
3.616592840000000,109,0x00,0x8C
3.616604860000000,109,0x00,0x8B
3.616616900000000,109,0x00,0x8A
3.616628940000000,109,0x00,0x83
3.616640960000000,109,0x00,0x7C
3.616653000000000,109,0x00,0x7B
3.616665020000000,109,0x00,0x80
3.616677060000000,109,0x00,0x88
3.616689100000000,109,0x00,0x91
3.616701120000000,109,0x00,0x99
3.616713160000000,109,0x00,0x9C
3.616725180000000,109,0x00,0x9E
3.616737220000000,109,0x00,0x9A
3.616749260000000,109,0x00,0x9B
3.616761280000000,109,0x00,0x9C
3.616773300000000,109,0x00,0x9E
3.616785340000000,109,0x00,0x9E
3.616797380000000,109,0x00,0xA1
3.616809400000000,109,0x00,0xA4
3.616821440000000,109,0x00,0xAA
3.616833480000000,109,0x00,0xA7
3.616845500000000,109,0x00,0xA6
3.616857540000000,109,0x00,0xA4
3.616869560000000,109,0x00,0x9F
3.616881600000000,109,0x00,0x99
3.616893640000000,109,0x00,0x90
3.616905680000000,109,0x00,0x84
3.616917700000000,109,0x00,0x7B
3.616929740000000,109,0x00,0x74
3.616941780000000,109,0x00,0x70
3.616953800000000,109,0x00,0x6D
3.616965840000000,109,0x00,0x6C
3.616977880000000,109,0x00,0x6D
3.616989900000000,109,0x00,0x74
3.617001940000000,109,0x00,0x71
3.617013960000000,109,0x00,0x6B
3.617026000000000,109,0x00,0x62
3.617038020000000,109,0x00,0x61
3.617050060000000,109,0x00,0x61
3.617062100000000,109,0x00,0x63
3.617074120000000,109,0x00,0x5E
3.617086160000000,109,0x00,0x5C
3.617098180000000,109,0x00,0x5F
3.617110220000000,109,0x00,0x64
3.617122260000000,109,0x00,0x69
3.617134280000000,109,0x00,0x76
3.617146320000000,109,0x00,0x84
3.617158340000000,109,0x00,0x88
3.617170380000000,109,0x00,0x87
3.617182420000000,109,0x00,0x83
3.617194440000000,109,0x00,0x7E
3.617206480000000,109,0x00,0x71
3.617218500000000,109,0x00,0x67
3.617230540000000,109,0x00,0x61
3.617242580000000,109,0x00,0x65
3.617254600000000,109,0x00,0x69
3.617266640000000,109,0x00,0x6B
3.617278660000000,109,0x00,0x6F
3.617290700000000,109,0x00,0x6E
3.617302740000000,109,0x00,0x6E
3.617314760000000,109,0x00,0x66
3.617326800000000,109,0x00,0x66
3.617338820000000,109,0x00,0x6D
3.617350860000000,109,0x00,0x74
3.617362900000000,109,0x00,0x7E
3.617374920000000,109,0x00,0x85
3.617386960000000,109,0x00,0x8A
3.617399000000000,109,0x00,0x8B
3.617411020000000,109,0x00,0x8B
3.617423060000000,109,0x00,0x8A
3.617435100000000,109,0x00,0x87
3.617447120000000,109,0x00,0x82
3.617459160000000,109,0x00,0x79
3.617471200000000,109,0x00,0x73
3.617483220000000,109,0x00,0x6C
3.617495260000000,109,0x00,0x64
3.617507300000000,109,0x00,0x5C
3.617519320000000,109,0x00,0x5A
3.617538140000000,109,0x00,0x60
3.617550180000000,109,0x00,0x65
3.617562200000000,109,0x00,0x6C
3.617574240000000,109,0x00,0x72
3.617586280000000,109,0x00,0x77
3.617598300000000,109,0x00,0x7F
3.617610340000000,109,0x00,0x88
3.617622380000000,109,0x00,0x92
3.617634400000000,109,0x00,0x9A
3.617646440000000,109,0x00,0x9C
3.617658480000000,109,0x00,0x98
3.617670520000000,109,0x00,0x93
3.617682540000000,109,0x00,0x8A
3.617694580000000,109,0x00,0x82
3.617706600000000,109,0x00,0x77
3.617718640000000,109,0x00,0x73
3.617730680000000,109,0x00,0x72
3.617742720000000,109,0x00,0x72
3.617754740000000,109,0x00,0x70
3.617766780000000,109,0x00,0x6E
3.617778820000000,109,0x00,0x6E
3.617790840000000,109,0x00,0x70
3.617802880000000,109,0x00,0x6D
3.617814920000000,109,0x00,0x71
3.617826940000000,109,0x00,0x78
3.617838980000000,109,0x00,0x82
3.617851020000000,109,0x00,0x8B
3.617863040000000,109,0x00,0x8F
3.617875080000000,109,0x00,0x8E
3.617887120000000,109,0x00,0x8B
3.617899140000000,109,0x00,0x85
3.617911180000000,109,0x00,0x86
3.617923220000000,109,0x00,0x83
3.617935240000000,109,0x00,0x79
3.617947280000000,109,0x00,0x6D
3.617959300000000,109,0x00,0x6A
3.617971340000000,109,0x00,0x6B
3.617983380000000,109,0x00,0x6A
3.617995400000000,109,0x00,0x6A
3.618007440000000,109,0x00,0x6B
3.618019460000000,109,0x00,0x70
3.618031500000000,109,0x00,0x71
3.618043540000000,109,0x00,0x75
3.618055560000000,109,0x00,0x7A
3.618067600000000,109,0x00,0x7B
3.618079620000000,109,0x00,0x79
3.618091660000000,109,0x00,0x73
3.618103700000000,109,0x00,0x76
3.618115720000000,109,0x00,0x7D
3.618127760000000,109,0x00,0x85
3.618139800000000,109,0x00,0x8D
3.618151820000000,109,0x00,0x93
3.618163860000000,109,0x00,0x9A
3.618175880000000,109,0x00,0xA2
3.618187920000000,109,0x00,0xA9
3.618199960000000,109,0x00,0xB0
3.618212000000000,109,0x00,0xB8
3.618224020000000,109,0x00,0xC1
3.618236060000000,109,0x00,0xC8
3.618248080000000,109,0x00,0xCE
3.618260120000000,109,0x00,0xD2
3.618272160000000,109,0x00,0xD7
3.618284180000000,109,0x00,0xDA
3.618296220000000,109,0x00,0xDD
3.618308240000000,109,0x00,0xE1
3.618320280000000,109,0x00,0xE4
3.618332300000000,109,0x00,0xE8
3.618344340000000,109,0x00,0xEB
3.618356360000000,109,0x00,0xEB
3.618368380000000,109,0x00,0xEE
3.618380420000000,109,0x00,0xEF
3.618392440000000,109,0x00,0xF1
3.618404480000000,109,0x00,0xF1
3.618416500000000,109,0x00,0xF4
3.618428540000000,109,0x00,0xF4
3.618440560000000,109,0x00,0xF5
3.618452600000000,109,0x00,0xF4
3.618464640000000,109,0x00,0xF5
3.618476660000000,109,0x00,0xF6
3.618488700000000,109,0x00,0xE6
3.618500740000000,109,0x00,0xE5
3.618512760000000,109,0x00,0xE2
3.618524780000000,109,0x00,0xDF
3.618541880000000,109,0x00,0xDC
3.618553900000000,109,0x00,0xD6
3.618565920000000,109,0x00,0xD0
3.618577960000000,109,0x00,0xCA
3.618589980000000,109,0x00,0xC1
3.618602020000000,109,0x00,0xBD
3.618614040000000,109,0x00,0xB5
3.618626080000000,109,0x00,0xAD
3.618638100000000,109,0x00,0xA4
3.618650140000000,109,0x00,0x97
3.618662160000000,109,0x00,0x8A
3.618674200000000,109,0x00,0x77
3.618686240000000,109,0x00,0x72
3.618698260000000,109,0x00,0x71
3.618710300000000,109,0x00,0x71
3.618722320000000,109,0x00,0x70
3.618734360000000,109,0x00,0x6E
3.618746400000000,109,0x00,0x6D
3.618758420000000,109,0x00,0x6D
3.618770440000000,109,0x00,0x6C
3.618782480000000,109,0x00,0x6E
3.618794520000000,109,0x00,0x75
3.618806540000000,109,0x00,0x7F
3.618818580000000,109,0x00,0x8B
3.618830620000000,109,0x00,0x93
3.618842640000000,109,0x00,0x96
3.618854680000000,109,0x00,0x98
3.618866700000000,109,0x00,0x94
3.618878740000000,109,0x00,0x93
3.618890760000000,109,0x00,0x98
3.618902800000000,109,0x00,0x99
3.618914840000000,109,0x00,0x99
3.618926860000000,109,0x00,0x97
3.618938900000000,109,0x00,0x94
3.618950920000000,109,0x00,0x8F
3.618962960000000,109,0x00,0x8C
3.618975000000000,109,0x00,0x8B
3.618987020000000,109,0x00,0x90
3.618999060000000,109,0x00,0x94
3.619011080000000,109,0x00,0x9C
3.619023120000000,109,0x00,0x9F
3.619035160000000,109,0x00,0xA1
3.619047180000000,109,0x00,0x9F
3.619059220000000,109,0x00,0x9D
3.619071260000000,109,0x00,0x9C
3.619083280000000,109,0x00,0x9D
3.619095320000000,109,0x00,0x9D
3.619107360000000,109,0x00,0x9F
3.619119380000000,109,0x00,0xA2
3.619131420000000,109,0x00,0xA6
3.619143440000000,109,0x00,0xA9
3.619155480000000,109,0x00,0xA9
3.619167500000000,109,0x00,0xA9
3.619179540000000,109,0x00,0xA8
3.619191580000000,109,0x00,0xA7
3.619203600000000,109,0x00,0xA5
3.619215640000000,109,0x00,0x9C
3.619227660000000,109,0x00,0x94
3.619239700000000,109,0x00,0x8C
3.619251720000000,109,0x00,0x83
3.619263760000000,109,0x00,0x7C
3.619275780000000,109,0x00,0x78
3.619287820000000,109,0x00,0x75
3.619299840000000,109,0x00,0x77
3.619311880000000,109,0x00,0x7A
3.619323920000000,109,0x00,0x7A
3.619335940000000,109,0x00,0x71
3.619347980000000,109,0x00,0x68
3.619360000000000,109,0x00,0x64
3.619372040000000,109,0x00,0x62
3.619384060000000,109,0x00,0x61
3.619396100000000,109,0x00,0x5D
3.619408140000000,109,0x00,0x5B
3.619420160000000,109,0x00,0x5D
3.619432200000000,109,0x00,0x60
3.619444240000000,109,0x00,0x64
3.619456260000000,109,0x00,0x71
3.619468300000000,109,0x00,0x7F
3.619480320000000,109,0x00,0x81
3.619492360000000,109,0x00,0x81
3.619504380000000,109,0x00,0x82
3.619516420000000,109,0x00,0x82
3.619528460000000,109,0x00,0x7D
3.619540480000000,109,0x00,0x72
3.619555540000000,109,0x00,0x69
3.619567580000000,109,0x00,0x66
3.619579620000000,109,0x00,0x69
3.619591640000000,109,0x00,0x6A
3.619603680000000,109,0x00,0x6C
3.619615700000000,109,0x00,0x6C
3.619627740000000,109,0x00,0x68
3.619639780000000,109,0x00,0x61
3.619651800000000,109,0x00,0x5E
3.619663840000000,109,0x00,0x60
3.619675860000000,109,0x00,0x67
3.619687900000000,109,0x00,0x71
3.619699940000000,109,0x00,0x7C
3.619711960000000,109,0x00,0x82
3.619724000000000,109,0x00,0x89
3.619736020000000,109,0x00,0x8C
3.619748060000000,109,0x00,0x8F
3.619760100000000,109,0x00,0x8F
3.619772120000000,109,0x00,0x8B
3.619784160000000,109,0x00,0x83
3.619796180000000,109,0x00,0x7B
3.619808220000000,109,0x00,0x76
3.619820260000000,109,0x00,0x6E
3.619832280000000,109,0x00,0x63
3.619844320000000,109,0x00,0x61
3.619856340000000,109,0x00,0x65
3.619868380000000,109,0x00,0x67
3.619880420000000,109,0x00,0x6B
3.619892440000000,109,0x00,0x6E
3.619904480000000,109,0x00,0x6F
3.619916500000000,109,0x00,0x72
3.619928540000000,109,0x00,0x79
3.619940560000000,109,0x00,0x83
3.619952600000000,109,0x00,0x90
3.619964640000000,109,0x00,0x96
3.619976660000000,109,0x00,0x98
3.619988700000000,109,0x00,0x98
3.620000720000000,109,0x00,0x93
3.620012760000000,109,0x00,0x8E
3.620024800000000,109,0x00,0x85
3.620036820000000,109,0x00,0x7E
3.620048860000000,109,0x00,0x7B
3.620060880000000,109,0x00,0x78
3.620072920000000,109,0x00,0x73
3.620084960000000,109,0x00,0x6F
3.620096980000000,109,0x00,0x6E
3.620109020000000,109,0x00,0x6F
3.620121040000000,109,0x00,0x6C
3.620133080000000,109,0x00,0x70
3.620145120000000,109,0x00,0x73
3.620157140000000,109,0x00,0x7B
3.620169180000000,109,0x00,0x86
3.620181200000000,109,0x00,0x8B
3.620193240000000,109,0x00,0x8C
3.620205260000000,109,0x00,0x8D
3.620217300000000,109,0x00,0x8C
3.620229340000000,109,0x00,0x8D
3.620241360000000,109,0x00,0x8C
3.620253400000000,109,0x00,0x7F
3.620265420000000,109,0x00,0x72
3.620277460000000,109,0x00,0x6C
3.620289500000000,109,0x00,0x6C
3.620301520000000,109,0x00,0x6F
3.620313560000000,109,0x00,0x6D
3.620325600000000,109,0x00,0x6E
3.620337620000000,109,0x00,0x72
3.620349660000000,109,0x00,0x71
3.620361700000000,109,0x00,0x75
3.620373720000000,109,0x00,0x78
3.620385760000000,109,0x00,0x77
3.620397800000000,109,0x00,0x74
3.620409820000000,109,0x00,0x6D
3.620421860000000,109,0x00,0x6B
3.620433880000000,109,0x00,0x71
3.620445920000000,109,0x00,0x78
3.620457960000000,109,0x00,0x80
3.620469980000000,109,0x00,0x89
3.620482020000000,109,0x00,0x90
3.620494040000000,109,0x00,0x99
3.620506080000000,109,0x00,0xA0
3.620518120000000,109,0x00,0xA8
3.620530140000000,109,0x00,0xB2
3.620542180000000,109,0x00,0xBA
3.620554200000000,109,0x00,0xC1
3.620571400000000,109,0x00,0xC9
3.620583440000000,109,0x00,0xCE
3.620595460000000,109,0x00,0xD1
3.620607500000000,109,0x00,0xD6
3.620619540000000,109,0x00,0xD9
3.620631560000000,109,0x00,0xDE
3.620643600000000,109,0x00,0xE1
3.620655620000000,109,0x00,0xE6
3.620667660000000,109,0x00,0xE9
3.620679700000000,109,0x00,0xEC
3.620691720000000,109,0x00,0xED
3.620703760000000,109,0x00,0xEE
3.620715780000000,109,0x00,0xF0
3.620727820000000,109,0x00,0xF1
3.620739860000000,109,0x00,0xF3
3.620751880000000,109,0x00,0xF3
3.620763920000000,109,0x00,0xF4
3.620775960000000,109,0x00,0xF4
3.620787980000000,109,0x00,0xF5
3.620800020000000,109,0x00,0xF5
3.620812060000000,109,0x00,0xE5
3.620824080000000,109,0x00,0xE3
3.620836120000000,109,0x00,0xE0
3.620848140000000,109,0x00,0xDC
3.620860180000000,109,0x00,0xD7
3.620872220000000,109,0x00,0xD2
3.620884240000000,109,0x00,0xCB
3.620896280000000,109,0x00,0xC2
3.620908300000000,109,0x00,0xB9
3.620920340000000,109,0x00,0xB2
3.620932380000000,109,0x00,0xAA
3.620944400000000,109,0x00,0x9F
3.620956440000000,109,0x00,0x95
3.620968460000000,109,0x00,0x89
3.620980500000000,109,0x00,0x7C
3.620992520000000,109,0x00,0x6F
3.621004560000000,109,0x00,0x6C
3.621016600000000,109,0x00,0x70
3.621028620000000,109,0x00,0x73
3.621040660000000,109,0x00,0x74
3.621052680000000,109,0x00,0x74
3.621064720000000,109,0x00,0x73
3.621076740000000,109,0x00,0x73
3.621088780000000,109,0x00,0x76
3.621100800000000,109,0x00,0x79
3.621112840000000,109,0x00,0x81
3.621124880000000,109,0x00,0x89
3.621136900000000,109,0x00,0x93
3.621148940000000,109,0x00,0x9B
3.621160960000000,109,0x00,0x9F
3.621173000000000,109,0x00,0x9F
3.621185020000000,109,0x00,0x9D
3.621197060000000,109,0x00,0x9D
3.621209100000000,109,0x00,0x9E
3.621221120000000,109,0x00,0x9D
3.621233160000000,109,0x00,0x9A
3.621245200000000,109,0x00,0x96
3.621257220000000,109,0x00,0x91
3.621269260000000,109,0x00,0x8D
3.621281280000000,109,0x00,0x88
3.621293320000000,109,0x00,0x87
3.621305340000000,109,0x00,0x8C
3.621317380000000,109,0x00,0x90
3.621329400000000,109,0x00,0x96
3.621341440000000,109,0x00,0x99
3.621353460000000,109,0x00,0x98
3.621365500000000,109,0x00,0x96
3.621377520000000,109,0x00,0x91
3.621389560000000,109,0x00,0x8F
3.621401580000000,109,0x00,0x90
3.621413620000000,109,0x00,0x91
3.621425660000000,109,0x00,0x92
3.621437680000000,109,0x00,0x95
3.621449720000000,109,0x00,0x98
3.621461760000000,109,0x00,0x9B
3.621473780000000,109,0x00,0x9D
3.621485820000000,109,0x00,0x9F
3.621497860000000,109,0x00,0xA1
3.621509880000000,109,0x00,0xA2
3.621521920000000,109,0x00,0xA3
3.621533940000000,109,0x00,0xA1
3.621545980000000,109,0x00,0x9A
3.621558020000000,109,0x00,0x96
3.621575180000000,109,0x00,0x90
3.621587220000000,109,0x00,0x8B
3.621599240000000,109,0x00,0x89
3.621611280000000,109,0x00,0x86
3.621623300000000,109,0x00,0x85
3.621635340000000,109,0x00,0x88
3.621647360000000,109,0x00,0x87
3.621659400000000,109,0x00,0x7E
3.621671420000000,109,0x00,0x71
3.621683460000000,109,0x00,0x6B
3.621695480000000,109,0x00,0x68
3.621707520000000,109,0x00,0x67
3.621719560000000,109,0x00,0x62
3.621731580000000,109,0x00,0x60
3.621743600000000,109,0x00,0x61
3.621755640000000,109,0x00,0x67
3.621767680000000,109,0x00,0x6B
3.621779700000000,109,0x00,0x75
3.621791740000000,109,0x00,0x7D
3.621803760000000,109,0x00,0x7C
3.621815800000000,109,0x00,0x7B
3.621827840000000,109,0x00,0x7D
3.621839860000000,109,0x00,0x82
3.621851900000000,109,0x00,0x82
3.621863940000000,109,0x00,0x7C
3.621875960000000,109,0x00,0x76
3.621888000000000,109,0x00,0x70
3.621900020000000,109,0x00,0x6E
3.621912060000000,109,0x00,0x6D
3.621924080000000,109,0x00,0x71
3.621936100000000,109,0x00,0x6F
3.621948140000000,109,0x00,0x6B
3.621960160000000,109,0x00,0x63
3.621972200000000,109,0x00,0x5C
3.621984220000000,109,0x00,0x5D
3.621996260000000,109,0x00,0x60
3.622008300000000,109,0x00,0x66
3.622020320000000,109,0x00,0x71
3.622032360000000,109,0x00,0x75
3.622044380000000,109,0x00,0x7C
3.622056420000000,109,0x00,0x85
3.622068460000000,109,0x00,0x8B
3.622080500000000,109,0x00,0x8E
3.622092520000000,109,0x00,0x8C
3.622104560000000,109,0x00,0x8A
3.622116580000000,109,0x00,0x87
3.622128620000000,109,0x00,0x83
3.622140660000000,109,0x00,0x7D
3.622152680000000,109,0x00,0x73
3.622164720000000,109,0x00,0x6D
3.622176760000000,109,0x00,0x6C
3.622188780000000,109,0x00,0x6A
3.622200820000000,109,0x00,0x6C
3.622212840000000,109,0x00,0x6D
3.622224880000000,109,0x00,0x6D
3.622236900000000,109,0x00,0x6D
3.622248940000000,109,0x00,0x6E
3.622260960000000,109,0x00,0x75
3.622273000000000,109,0x00,0x80
3.622285040000000,109,0x00,0x88
3.622297060000000,109,0x00,0x8E
3.622309100000000,109,0x00,0x92
3.622321140000000,109,0x00,0x91
3.622333160000000,109,0x00,0x91
3.622345200000000,109,0x00,0x8C
3.622357240000000,109,0x00,0x8B
3.622369260000000,109,0x00,0x88
3.622381300000000,109,0x00,0x82
3.622393320000000,109,0x00,0x7B
3.622405360000000,109,0x00,0x76
3.622417400000000,109,0x00,0x6F
3.622429420000000,109,0x00,0x6F
3.622441460000000,109,0x00,0x6F
3.622453480000000,109,0x00,0x6F
3.622465520000000,109,0x00,0x73
3.622477560000000,109,0x00,0x78
3.622489580000000,109,0x00,0x7E
3.622501620000000,109,0x00,0x83
3.622513640000000,109,0x00,0x85
3.622525680000000,109,0x00,0x89
3.622537720000000,109,0x00,0x8C
3.622549740000000,109,0x00,0x8E
3.622561780000000,109,0x00,0x8F
3.622573800000000,109,0x00,0x84
3.622591220000000,109,0x00,0x79
3.622603240000000,109,0x00,0x71
3.622615280000000,109,0x00,0x72
3.622627300000000,109,0x00,0x76
3.622639340000000,109,0x00,0x74
3.622651380000000,109,0x00,0x74
3.622663400000000,109,0x00,0x76
3.622675440000000,109,0x00,0x74
3.622687480000000,109,0x00,0x74
3.622699500000000,109,0x00,0x76
3.622711540000000,109,0x00,0x76
3.622723560000000,109,0x00,0x74
3.622735600000000,109,0x00,0x6E
3.622747640000000,109,0x00,0x69
3.622759660000000,109,0x00,0x6B
3.622771700000000,109,0x00,0x70
3.622783720000000,109,0x00,0x76
3.622795760000000,109,0x00,0x80
3.622807800000000,109,0x00,0x84
3.622819820000000,109,0x00,0x8E
3.622831860000000,109,0x00,0x95
3.622843900000000,109,0x00,0x9E
3.622855920000000,109,0x00,0xA9
3.622867960000000,109,0x00,0xB4
3.622880000000000,109,0x00,0xBC
3.622892020000000,109,0x00,0xC2
3.622904060000000,109,0x00,0xC5
3.622916100000000,109,0x00,0xCD
3.622928120000000,109,0x00,0xD2
3.622940160000000,109,0x00,0xD5
3.622952180000000,109,0x00,0xDB
3.622964220000000,109,0x00,0xDF
3.622976260000000,109,0x00,0xE4
3.622988280000000,109,0x00,0xE6
3.623000320000000,109,0x00,0xEA
3.623012360000000,109,0x00,0xEC
3.623024380000000,109,0x00,0xEE
3.623036420000000,109,0x00,0xEE
3.623048460000000,109,0x00,0xF0
3.623060480000000,109,0x00,0xF2
3.623072520000000,109,0x00,0xF3
3.623084540000000,109,0x00,0xF4
3.623096580000000,109,0x00,0xF4
3.623108620000000,109,0x00,0xF4
3.623120660000000,109,0x00,0xF3
3.623132680000000,109,0x00,0xE4
3.623144720000000,109,0x00,0xE1
3.623156740000000,109,0x00,0xDD
3.623168780000000,109,0x00,0xD9
3.623180820000000,109,0x00,0xD3
3.623192840000000,109,0x00,0xCC
3.623204880000000,109,0x00,0xC4
3.623216900000000,109,0x00,0xBA
3.623228940000000,109,0x00,0xB0
3.623240980000000,109,0x00,0xA8
3.623253020000000,109,0x00,0x9F
3.623265040000000,109,0x00,0x93
3.623277080000000,109,0x00,0x87
3.623289100000000,109,0x00,0x7C
3.623301140000000,109,0x00,0x75
3.623313180000000,109,0x00,0x6C
3.623325200000000,109,0x00,0x6D
3.623337240000000,109,0x00,0x74
3.623349260000000,109,0x00,0x7D
3.623361300000000,109,0x00,0x80
3.623373320000000,109,0x00,0x82
3.623385360000000,109,0x00,0x82
3.623397380000000,109,0x00,0x85
3.623409400000000,109,0x00,0x85
3.623421440000000,109,0x00,0x88
3.623433460000000,109,0x00,0x8C
3.623445480000000,109,0x00,0x91
3.623457520000000,109,0x00,0x95
3.623469540000000,109,0x00,0x9A
3.623481580000000,109,0x00,0x9C
3.623493600000000,109,0x00,0x9D
3.623505640000000,109,0x00,0x98
3.623517660000000,109,0x00,0x96
3.623529700000000,109,0x00,0x95
3.623541720000000,109,0x00,0x91
3.623553760000000,109,0x00,0x8E
3.623565800000000,109,0x00,0x88
3.623577820000000,109,0x00,0x81
3.623589860000000,109,0x00,0x7C
3.623608720000000,109,0x00,0x76
3.623620740000000,109,0x00,0x76
3.623632780000000,109,0x00,0x79
3.623644800000000,109,0x00,0x7D
3.623656840000000,109,0x00,0x85
3.623668860000000,109,0x00,0x88
3.623680900000000,109,0x00,0x89
3.623692940000000,109,0x00,0x84
3.623704960000000,109,0x00,0x7D
3.623717000000000,109,0x00,0x7C
3.623729020000000,109,0x00,0x7A
3.623741060000000,109,0x00,0x7B
3.623753080000000,109,0x00,0x7E
3.623765120000000,109,0x00,0x7F
3.623777140000000,109,0x00,0x80
3.623789180000000,109,0x00,0x83
3.623801200000000,109,0x00,0x84
3.623813240000000,109,0x00,0x8A
3.623825260000000,109,0x00,0x8E
3.623837300000000,109,0x00,0x91
3.623849320000000,109,0x00,0x96
3.623861360000000,109,0x00,0x95
3.623873380000000,109,0x00,0x92
3.623885420000000,109,0x00,0x8F
3.623897440000000,109,0x00,0x8E
3.623909480000000,109,0x00,0x8D
3.623921500000000,109,0x00,0x8E
3.623933540000000,109,0x00,0x8E
3.623945580000000,109,0x00,0x8E
3.623957600000000,109,0x00,0x91
3.623969640000000,109,0x00,0x8E
3.623981660000000,109,0x00,0x88
3.623993700000000,109,0x00,0x7F
3.624005720000000,109,0x00,0x7A
3.624017760000000,109,0x00,0x76
3.624029800000000,109,0x00,0x74
3.624041820000000,109,0x00,0x6D
3.624053860000000,109,0x00,0x6D
3.624065880000000,109,0x00,0x6E
3.624077920000000,109,0x00,0x75
3.624089940000000,109,0x00,0x79
3.624101980000000,109,0x00,0x80
3.624114000000000,109,0x00,0x83
3.624126040000000,109,0x00,0x7F
3.624138080000000,109,0x00,0x7D
3.624150100000000,109,0x00,0x7C
3.624162140000000,109,0x00,0x80
3.624174180000000,109,0x00,0x85
3.624186200000000,109,0x00,0x85
3.624198240000000,109,0x00,0x83
3.624210260000000,109,0x00,0x7E
3.624222300000000,109,0x00,0x77
3.624234340000000,109,0x00,0x75
3.624246360000000,109,0x00,0x77
3.624258400000000,109,0x00,0x76
3.624270420000000,109,0x00,0x72
3.624282460000000,109,0x00,0x67
3.624294500000000,109,0x00,0x62
3.624306520000000,109,0x00,0x60
3.624318560000000,109,0x00,0x5F
3.624330580000000,109,0x00,0x64
3.624342620000000,109,0x00,0x69
3.624354660000000,109,0x00,0x6B
3.624366680000000,109,0x00,0x70
3.624378700000000,109,0x00,0x74
3.624390740000000,109,0x00,0x79
3.624402780000000,109,0x00,0x80
3.624414800000000,109,0x00,0x83
3.624426840000000,109,0x00,0x85
3.624438860000000,109,0x00,0x88
3.624450900000000,109,0x00,0x8B
3.624462940000000,109,0x00,0x8B
3.624474980000000,109,0x00,0x83
3.624487000000000,109,0x00,0x7D
3.624499040000000,109,0x00,0x79
3.624511080000000,109,0x00,0x74
3.624523100000000,109,0x00,0x72
3.624535140000000,109,0x00,0x72
3.624547180000000,109,0x00,0x71
3.624559200000000,109,0x00,0x6E
3.624571240000000,109,0x00,0x6B
3.624583280000000,109,0x00,0x6D
3.624595300000000,109,0x00,0x75
3.624612400000000,109,0x00,0x7D
3.624624420000000,109,0x00,0x80
3.624636460000000,109,0x00,0x82
3.624648500000000,109,0x00,0x85
3.624660520000000,109,0x00,0x88
3.624672560000000,109,0x00,0x88
3.624684600000000,109,0x00,0x8C
3.624696620000000,109,0x00,0x90
3.624708660000000,109,0x00,0x8C
3.624720680000000,109,0x00,0x85
3.624732720000000,109,0x00,0x7C
3.624744760000000,109,0x00,0x76
3.624756780000000,109,0x00,0x74
3.624768820000000,109,0x00,0x72
3.624780860000000,109,0x00,0x71
3.624792880000000,109,0x00,0x73
3.624804920000000,109,0x00,0x75
3.624816940000000,109,0x00,0x78
3.624828980000000,109,0x00,0x79
3.624841020000000,109,0x00,0x7C
3.624853040000000,109,0x00,0x7E
3.624865080000000,109,0x00,0x81
3.624877100000000,109,0x00,0x89
3.624889140000000,109,0x00,0x8B
3.624901180000000,109,0x00,0x88
3.624913200000000,109,0x00,0x80
3.624925240000000,109,0x00,0x79
3.624937260000000,109,0x00,0x7C
3.624949300000000,109,0x00,0x80
3.624961340000000,109,0x00,0x7F
3.624973380000000,109,0x00,0x7F
3.624985400000000,109,0x00,0x7C
3.624997440000000,109,0x00,0x77
3.625009460000000,109,0x00,0x72
3.625021500000000,109,0x00,0x72
3.625033540000000,109,0x00,0x75
3.625045560000000,109,0x00,0x75
3.625057600000000,109,0x00,0x6F
3.625069640000000,109,0x00,0x6D
3.625081660000000,109,0x00,0x6B
3.625093700000000,109,0x00,0x6C
3.625105720000000,109,0x00,0x70
3.625117760000000,109,0x00,0x78
3.625129780000000,109,0x00,0x7B
3.625141820000000,109,0x00,0x80
3.625153840000000,109,0x00,0x86
3.625165880000000,109,0x00,0x8F
3.625177900000000,109,0x00,0x9C
3.625189940000000,109,0x00,0xA9
3.625201960000000,109,0x00,0xB0
3.625214000000000,109,0x00,0xB8
3.625226020000000,109,0x00,0xC0
3.625238060000000,109,0x00,0xC7
3.625250100000000,109,0x00,0xCB
3.625262120000000,109,0x00,0xD2
3.625274160000000,109,0x00,0xD6
3.625286180000000,109,0x00,0xDB
3.625298220000000,109,0x00,0xE1
3.625310260000000,109,0x00,0xE5
3.625322280000000,109,0x00,0xE7
3.625334320000000,109,0x00,0xEA
3.625346360000000,109,0x00,0xEC
3.625358380000000,109,0x00,0xEE
3.625370420000000,109,0x00,0xEF
3.625382460000000,109,0x00,0xF0
3.625394480000000,109,0x00,0xF1
3.625406520000000,109,0x00,0xF3
3.625418540000000,109,0x00,0xF3
3.625430580000000,109,0x00,0xF4
3.625442620000000,109,0x00,0xF4
3.625454640000000,109,0x00,0xE2
3.625466660000000,109,0x00,0xDF
3.625478700000000,109,0x00,0xDB
3.625490740000000,109,0x00,0xD4
3.625502760000000,109,0x00,0xCE
3.625514800000000,109,0x00,0xC6
3.625526820000000,109,0x00,0xBE
3.625538860000000,109,0x00,0xB2
3.625550880000000,109,0x00,0xA8
3.625562920000000,109,0x00,0x9F
3.625574940000000,109,0x00,0x98
3.625586980000000,109,0x00,0x8B
3.625599020000000,109,0x00,0x80
3.625611040000000,109,0x00,0x77
3.625626280000000,109,0x00,0x74
3.625638320000000,109,0x00,0x6F
3.625650340000000,109,0x00,0x72
3.625662380000000,109,0x00,0x7C
3.625674420000000,109,0x00,0x86
3.625686440000000,109,0x00,0x8D
3.625698480000000,109,0x00,0x93
3.625710520000000,109,0x00,0x94
3.625722540000000,109,0x00,0x94
3.625734580000000,109,0x00,0x92
3.625746620000000,109,0x00,0x91
3.625758640000000,109,0x00,0x8F
3.625770680000000,109,0x00,0x8C
3.625782720000000,109,0x00,0x8C
3.625794740000000,109,0x00,0x8C
3.625806780000000,109,0x00,0x8E
3.625818800000000,109,0x00,0x8F
3.625830840000000,109,0x00,0x89
3.625842880000000,109,0x00,0x87
3.625854920000000,109,0x00,0x84
3.625866940000000,109,0x00,0x80
3.625878980000000,109,0x00,0x7A
3.625891000000000,109,0x00,0x76
3.625903040000000,109,0x00,0x73
3.625915080000000,109,0x00,0x6E
3.625927100000000,109,0x00,0x6A
3.625939140000000,109,0x00,0x64
3.625951180000000,109,0x00,0x65
3.625963200000000,109,0x00,0x68
3.625975240000000,109,0x00,0x6E
3.625987280000000,109,0x00,0x72
3.625999320000000,109,0x00,0x76
3.626011340000000,109,0x00,0x73
3.626023380000000,109,0x00,0x6E
3.626035420000000,109,0x00,0x6C
3.626047440000000,109,0x00,0x6B
3.626059480000000,109,0x00,0x6B
3.626071500000000,109,0x00,0x6F
3.626083540000000,109,0x00,0x6F
3.626095580000000,109,0x00,0x6D
3.626107620000000,109,0x00,0x6E
3.626119640000000,109,0x00,0x6E
3.626131680000000,109,0x00,0x72
3.626143720000000,109,0x00,0x79
3.626155740000000,109,0x00,0x7D
3.626167780000000,109,0x00,0x81
3.626179820000000,109,0x00,0x80
3.626191840000000,109,0x00,0x7C
3.626203880000000,109,0x00,0x78
3.626215920000000,109,0x00,0x78
3.626227940000000,109,0x00,0x7C
3.626239980000000,109,0x00,0x84
3.626252020000000,109,0x00,0x87
3.626264040000000,109,0x00,0x8A
3.626276080000000,109,0x00,0x8B
3.626288120000000,109,0x00,0x89
3.626300140000000,109,0x00,0x86
3.626312180000000,109,0x00,0x7E
3.626324200000000,109,0x00,0x7F
3.626336240000000,109,0x00,0x80
3.626348280000000,109,0x00,0x7D
3.626360300000000,109,0x00,0x7A
3.626372340000000,109,0x00,0x78
3.626384360000000,109,0x00,0x7B
3.626396400000000,109,0x00,0x7F
3.626408420000000,109,0x00,0x82
3.626420460000000,109,0x00,0x86
3.626432480000000,109,0x00,0x8C
3.626444520000000,109,0x00,0x88
3.626456560000000,109,0x00,0x82
3.626468600000000,109,0x00,0x80
3.626480620000000,109,0x00,0x83
3.626492660000000,109,0x00,0x87
3.626504700000000,109,0x00,0x8E
3.626516720000000,109,0x00,0x8D
3.626528760000000,109,0x00,0x8B
3.626540800000000,109,0x00,0x84
3.626552820000000,109,0x00,0x83
3.626564860000000,109,0x00,0x83
3.626576900000000,109,0x00,0x84
3.626588920000000,109,0x00,0x7D
3.626600960000000,109,0x00,0x70
3.626612980000000,109,0x00,0x68
3.626625020000000,109,0x00,0x65
3.626632400000000,109,0x00,0x62
3.626644420000000,109,0x00,0x66
3.626656460000000,109,0x00,0x69
3.626668480000000,109,0x00,0x69
3.626680520000000,109,0x00,0x67
3.626692540000000,109,0x00,0x67
3.626704580000000,109,0x00,0x67
3.626716620000000,109,0x00,0x6C
3.626728640000000,109,0x00,0x72
3.626740680000000,109,0x00,0x77
3.626752700000000,109,0x00,0x80
3.626764740000000,109,0x00,0x89
3.626776780000000,109,0x00,0x91
3.626788800000000,109,0x00,0x8F
3.626800840000000,109,0x00,0x8E
3.626812880000000,109,0x00,0x89
3.626824900000000,109,0x00,0x83
3.626836940000000,109,0x00,0x7E
3.626848980000000,109,0x00,0x7C
3.626861000000000,109,0x00,0x76
3.626873040000000,109,0x00,0x72
3.626885080000000,109,0x00,0x6D
3.626897100000000,109,0x00,0x6C
3.626909140000000,109,0x00,0x71
3.626921180000000,109,0x00,0x74
3.626933200000000,109,0x00,0x75
3.626945240000000,109,0x00,0x75
3.626957280000000,109,0x00,0x77
3.626969300000000,109,0x00,0x78
3.626981340000000,109,0x00,0x79
3.626993360000000,109,0x00,0x80
3.627005400000000,109,0x00,0x8B
3.627017420000000,109,0x00,0x8E
3.627029460000000,109,0x00,0x8C
3.627041500000000,109,0x00,0x84
3.627053520000000,109,0x00,0x7E
3.627065560000000,109,0x00,0x7B
3.627077580000000,109,0x00,0x77
3.627089620000000,109,0x00,0x75
3.627101660000000,109,0x00,0x74
3.627113680000000,109,0x00,0x71
3.627125720000000,109,0x00,0x72
3.627137740000000,109,0x00,0x75
3.627149780000000,109,0x00,0x74
3.627161820000000,109,0x00,0x77
3.627173860000000,109,0x00,0x78
3.627185880000000,109,0x00,0x7D
3.627197920000000,109,0x00,0x85
3.627209940000000,109,0x00,0x82
3.627221980000000,109,0x00,0x80
3.627234020000000,109,0x00,0x82
3.627246040000000,109,0x00,0x84
3.627258080000000,109,0x00,0x8A
3.627270120000000,109,0x00,0x8A
3.627282140000000,109,0x00,0x89
3.627294180000000,109,0x00,0x85
3.627306220000000,109,0x00,0x7B
3.627318240000000,109,0x00,0x72
3.627330280000000,109,0x00,0x70
3.627342300000000,109,0x00,0x6F
3.627354340000000,109,0x00,0x71
3.627366380000000,109,0x00,0x70
3.627378400000000,109,0x00,0x6E
3.627390440000000,109,0x00,0x6D
3.627402480000000,109,0x00,0x6F
3.627414500000000,109,0x00,0x6F
3.627426540000000,109,0x00,0x72
3.627438560000000,109,0x00,0x73
3.627450600000000,109,0x00,0x75
3.627462640000000,109,0x00,0x77
3.627474680000000,109,0x00,0x80
3.627486700000000,109,0x00,0x8C
3.627498740000000,109,0x00,0x99
3.627510760000000,109,0x00,0xA2
3.627522800000000,109,0x00,0xAB
3.627534840000000,109,0x00,0xB4
3.627546860000000,109,0x00,0xBE
3.627558900000000,109,0x00,0xC5
3.627570940000000,109,0x00,0xCC
3.627582960000000,109,0x00,0xD5
3.627595000000000,109,0x00,0xD8
3.627607040000000,109,0x00,0xDE
3.627619060000000,109,0x00,0xE2
3.627631100000000,109,0x00,0xE4
3.627647900000000,109,0x00,0xE8
3.627659940000000,109,0x00,0xEB
3.627671980000000,109,0x00,0xEC
3.627684000000000,109,0x00,0xEE
3.627696040000000,109,0x00,0xF0
3.627708080000000,109,0x00,0xF1
3.627720100000000,109,0x00,0xF2
3.627732140000000,109,0x00,0xF3
3.627744180000000,109,0x00,0xF2
3.627756220000000,109,0x00,0xF3
3.627768240000000,109,0x00,0xE1
3.627780280000000,109,0x00,0xDD
3.627792300000000,109,0x00,0xD7
3.627804340000000,109,0x00,0xD2
3.627816380000000,109,0x00,0xCB
3.627828400000000,109,0x00,0xC2
3.627840440000000,109,0x00,0xB7
3.627852480000000,109,0x00,0xAC
3.627864500000000,109,0x00,0xA2
3.627876540000000,109,0x00,0x9B
3.627888580000000,109,0x00,0x94
3.627900600000000,109,0x00,0x8D
3.627912640000000,109,0x00,0x83
3.627924680000000,109,0x00,0x7D
3.627936700000000,109,0x00,0x7A
3.627948740000000,109,0x00,0x78
3.627960760000000,109,0x00,0x7D
3.627972800000000,109,0x00,0x84
3.627984840000000,109,0x00,0x8E
3.627996860000000,109,0x00,0x96
3.628008900000000,109,0x00,0x9A
3.628020920000000,109,0x00,0x9D
3.628032960000000,109,0x00,0x9A
3.628045000000000,109,0x00,0x92
3.628057020000000,109,0x00,0x8B
3.628069060000000,109,0x00,0x84
3.628081100000000,109,0x00,0x7D
3.628093120000000,109,0x00,0x75
3.628105160000000,109,0x00,0x74
3.628117200000000,109,0x00,0x77
3.628129220000000,109,0x00,0x7A
3.628141260000000,109,0x00,0x75
3.628153280000000,109,0x00,0x74
3.628165320000000,109,0x00,0x72
3.628177360000000,109,0x00,0x6F
3.628189380000000,109,0x00,0x6D
3.628201420000000,109,0x00,0x6D
3.628213460000000,109,0x00,0x6D
3.628225480000000,109,0x00,0x69
3.628237520000000,109,0x00,0x64
3.628249560000000,109,0x00,0x61
3.628261580000000,109,0x00,0x5F
3.628273620000000,109,0x00,0x5F
3.628285640000000,109,0x00,0x62
3.628297680000000,109,0x00,0x67
3.628309720000000,109,0x00,0x6A
3.628321740000000,109,0x00,0x6B
3.628333780000000,109,0x00,0x68
3.628345820000000,109,0x00,0x67
3.628357840000000,109,0x00,0x67
3.628369880000000,109,0x00,0x67
3.628381900000000,109,0x00,0x69
3.628393940000000,109,0x00,0x6C
3.628405980000000,109,0x00,0x6C
3.628418000000000,109,0x00,0x69
3.628430040000000,109,0x00,0x65
3.628442080000000,109,0x00,0x66
3.628454100000000,109,0x00,0x6A
3.628466140000000,109,0x00,0x6D
3.628478180000000,109,0x00,0x6E
3.628490200000000,109,0x00,0x6D
3.628502240000000,109,0x00,0x68
3.628514260000000,109,0x00,0x63
3.628526300000000,109,0x00,0x62
3.628538320000000,109,0x00,0x68
3.628550360000000,109,0x00,0x72
3.628562400000000,109,0x00,0x77
3.628574440000000,109,0x00,0x79
3.628586460000000,109,0x00,0x7A
3.628598500000000,109,0x00,0x78
3.628610520000000,109,0x00,0x74
3.628622560000000,109,0x00,0x71
3.628634580000000,109,0x00,0x72
3.628646620000000,109,0x00,0x77
3.628664160000000,109,0x00,0x79
3.628676200000000,109,0x00,0x79
3.628688240000000,109,0x00,0x78
3.628700280000000,109,0x00,0x79
3.628712300000000,109,0x00,0x7B
3.628724340000000,109,0x00,0x7B
3.628736360000000,109,0x00,0x81
3.628748400000000,109,0x00,0x86
3.628760440000000,109,0x00,0x85
3.628772460000000,109,0x00,0x84
3.628784500000000,109,0x00,0x80
3.628796540000000,109,0x00,0x82
3.628808560000000,109,0x00,0x87
3.628820600000000,109,0x00,0x8F
3.628832640000000,109,0x00,0x91
3.628844660000000,109,0x00,0x92
3.628856700000000,109,0x00,0x8E
3.628868720000000,109,0x00,0x8E
3.628880760000000,109,0x00,0x90
3.628892800000000,109,0x00,0x91
3.628904820000000,109,0x00,0x8B
3.628916860000000,109,0x00,0x7E
3.628928900000000,109,0x00,0x70
3.628940920000000,109,0x00,0x69
3.628952960000000,109,0x00,0x69
3.628964980000000,109,0x00,0x6B
3.628977020000000,109,0x00,0x6D
3.628989060000000,109,0x00,0x69
3.629001080000000,109,0x00,0x62
3.629013120000000,109,0x00,0x5C
3.629025160000000,109,0x00,0x5A
3.629037180000000,109,0x00,0x5C
3.629049220000000,109,0x00,0x61
3.629061260000000,109,0x00,0x67
3.629073280000000,109,0x00,0x73
3.629085320000000,109,0x00,0x7F
3.629097340000000,109,0x00,0x8A
3.629109380000000,109,0x00,0x92
3.629121400000000,109,0x00,0x94
3.629133440000000,109,0x00,0x95
3.629145460000000,109,0x00,0x93
3.629157500000000,109,0x00,0x8D
3.629169520000000,109,0x00,0x89
3.629181560000000,109,0x00,0x82
3.629193600000000,109,0x00,0x79
3.629205620000000,109,0x00,0x72
3.629217660000000,109,0x00,0x72
3.629229700000000,109,0x00,0x73
3.629241720000000,109,0x00,0x72
3.629253760000000,109,0x00,0x71
3.629265780000000,109,0x00,0x71
3.629277820000000,109,0x00,0x72
3.629289840000000,109,0x00,0x6F
3.629301880000000,109,0x00,0x6F
3.629313920000000,109,0x00,0x76
3.629325960000000,109,0x00,0x81
3.629337980000000,109,0x00,0x86
3.629350020000000,109,0x00,0x8A
3.629362040000000,109,0x00,0x8B
3.629374080000000,109,0x00,0x8B
3.629386100000000,109,0x00,0x88
3.629398140000000,109,0x00,0x82
3.629410180000000,109,0x00,0x7C
3.629422200000000,109,0x00,0x78
3.629434240000000,109,0x00,0x73
3.629446260000000,109,0x00,0x70
3.629458300000000,109,0x00,0x72
3.629470340000000,109,0x00,0x73
3.629482360000000,109,0x00,0x73
3.629494400000000,109,0x00,0x73
3.629506420000000,109,0x00,0x74
3.629518460000000,109,0x00,0x77
3.629530500000000,109,0x00,0x79
3.629542520000000,109,0x00,0x7C
3.629554560000000,109,0x00,0x80
3.629566580000000,109,0x00,0x87
3.629578620000000,109,0x00,0x8E
3.629590640000000,109,0x00,0x90
3.629602680000000,109,0x00,0x8D
3.629614700000000,109,0x00,0x8B
3.629626740000000,109,0x00,0x84
3.629638780000000,109,0x00,0x79
3.629650800000000,109,0x00,0x73
3.629669860000000,109,0x00,0x6F
3.629681880000000,109,0x00,0x71
3.629693920000000,109,0x00,0x6E
3.629705940000000,109,0x00,0x6D
3.629717980000000,109,0x00,0x6E
3.629730020000000,109,0x00,0x6D
3.629742040000000,109,0x00,0x6C
3.629754080000000,109,0x00,0x6B
3.629766120000000,109,0x00,0x69
3.629778140000000,109,0x00,0x6A
3.629790180000000,109,0x00,0x6C
3.629802220000000,109,0x00,0x73
3.629814240000000,109,0x00,0x7D
3.629826280000000,109,0x00,0x88
3.629838300000000,109,0x00,0x90
3.629850340000000,109,0x00,0x99
3.629862360000000,109,0x00,0xA4
3.629874400000000,109,0x00,0xB1
3.629886440000000,109,0x00,0xBA
3.629898460000000,109,0x00,0xC4
3.629910480000000,109,0x00,0xCD
3.629922520000000,109,0x00,0xD2
3.629934560000000,109,0x00,0xDA
3.629946580000000,109,0x00,0xDF
3.629958620000000,109,0x00,0xE3
3.629970640000000,109,0x00,0xE6
3.629982680000000,109,0x00,0xE9
3.629994700000000,109,0x00,0xEA
3.630006740000000,109,0x00,0xED
3.630018780000000,109,0x00,0xEE
3.630030800000000,109,0x00,0xF1
3.630042840000000,109,0x00,0xF1
3.630054860000000,109,0x00,0xF2
3.630066900000000,109,0x00,0xF3
3.630078940000000,109,0x00,0xF4
3.630090980000000,109,0x00,0xDE
3.630103000000000,109,0x00,0xDC
3.630115040000000,109,0x00,0xD5
3.630127060000000,109,0x00,0xCF
3.630139100000000,109,0x00,0xC9
3.630151140000000,109,0x00,0xBF
3.630163160000000,109,0x00,0xB6
3.630175180000000,109,0x00,0xAB
3.630187220000000,109,0x00,0xA1
3.630199260000000,109,0x00,0x9D
3.630211280000000,109,0x00,0x97
3.630223320000000,109,0x00,0x92
3.630235340000000,109,0x00,0x8F
3.630247380000000,109,0x00,0x8A
3.630259400000000,109,0x00,0x88
3.630271440000000,109,0x00,0x83
3.630283480000000,109,0x00,0x84
3.630295500000000,109,0x00,0x88
3.630307540000000,109,0x00,0x8D
3.630319560000000,109,0x00,0x94
3.630331600000000,109,0x00,0x99
3.630343620000000,109,0x00,0x98
3.630355660000000,109,0x00,0x91
3.630367680000000,109,0x00,0x84
3.630379720000000,109,0x00,0x7B
3.630391740000000,109,0x00,0x73
3.630403780000000,109,0x00,0x6C
3.630415800000000,109,0x00,0x64
3.630427840000000,109,0x00,0x61
3.630439880000000,109,0x00,0x64
3.630451920000000,109,0x00,0x69
3.630463940000000,109,0x00,0x6A
3.630475980000000,109,0x00,0x6A
3.630488020000000,109,0x00,0x6B
3.630500040000000,109,0x00,0x6C
3.630512080000000,109,0x00,0x6C
3.630524100000000,109,0x00,0x6B
3.630536140000000,109,0x00,0x6D
3.630548180000000,109,0x00,0x6C
3.630560200000000,109,0x00,0x66
3.630572240000000,109,0x00,0x65
3.630584260000000,109,0x00,0x65
3.630596300000000,109,0x00,0x61
3.630608340000000,109,0x00,0x60
3.630620360000000,109,0x00,0x63
3.630632400000000,109,0x00,0x64
3.630644420000000,109,0x00,0x68
3.630656460000000,109,0x00,0x68
3.630668500000000,109,0x00,0x67
3.630685280000000,109,0x00,0x68
3.630697320000000,109,0x00,0x68
3.630709340000000,109,0x00,0x69
3.630721380000000,109,0x00,0x6D
3.630733420000000,109,0x00,0x6D
3.630745440000000,109,0x00,0x6B
3.630757480000000,109,0x00,0x65
3.630769520000000,109,0x00,0x63
3.630781540000000,109,0x00,0x67
3.630793580000000,109,0x00,0x68
3.630805620000000,109,0x00,0x67
3.630817640000000,109,0x00,0x64
3.630829680000000,109,0x00,0x60
3.630841700000000,109,0x00,0x5C
3.630853740000000,109,0x00,0x59
3.630865760000000,109,0x00,0x5C
3.630877800000000,109,0x00,0x65
3.630889820000000,109,0x00,0x6A
3.630901860000000,109,0x00,0x6B
3.630913880000000,109,0x00,0x6B
3.630925920000000,109,0x00,0x69
3.630937960000000,109,0x00,0x63
3.630950000000000,109,0x00,0x5F
3.630962020000000,109,0x00,0x62
3.630974060000000,109,0x00,0x65
3.630986080000000,109,0x00,0x6B
3.630998120000000,109,0x00,0x6C
3.631010160000000,109,0x00,0x6C
3.631022180000000,109,0x00,0x6D
3.631034220000000,109,0x00,0x6D
3.631046240000000,109,0x00,0x6C
3.631058280000000,109,0x00,0x71
3.631070320000000,109,0x00,0x78
3.631082340000000,109,0x00,0x7B
3.631094380000000,109,0x00,0x79
3.631106400000000,109,0x00,0x78
3.631118440000000,109,0x00,0x7A
3.631130480000000,109,0x00,0x81
3.631142500000000,109,0x00,0x8B
3.631154540000000,109,0x00,0x90
3.631166580000000,109,0x00,0x90
3.631178600000000,109,0x00,0x90
3.631190640000000,109,0x00,0x90
3.631202660000000,109,0x00,0x96
3.631214700000000,109,0x00,0x98
3.631226740000000,109,0x00,0x95
3.631238760000000,109,0x00,0x8A
3.631250800000000,109,0x00,0x7C
3.631262820000000,109,0x00,0x74
3.631274860000000,109,0x00,0x73
3.631286900000000,109,0x00,0x74
3.631298940000000,109,0x00,0x74
3.631310960000000,109,0x00,0x70
3.631323000000000,109,0x00,0x68
3.631335020000000,109,0x00,0x5C
3.631347060000000,109,0x00,0x59
3.631359100000000,109,0x00,0x59
3.631371120000000,109,0x00,0x59
3.631383160000000,109,0x00,0x5E
3.631395180000000,109,0x00,0x65
3.631407220000000,109,0x00,0x72
3.631419260000000,109,0x00,0x7F
3.631431280000000,109,0x00,0x89
3.631443320000000,109,0x00,0x90
3.631455360000000,109,0x00,0x95
3.631467400000000,109,0x00,0x99
3.631479420000000,109,0x00,0x97
3.631491460000000,109,0x00,0x94
3.631503480000000,109,0x00,0x8E
3.631515520000000,109,0x00,0x87
3.631527560000000,109,0x00,0x80
3.631539600000000,109,0x00,0x7C
3.631551620000000,109,0x00,0x7C
3.631563660000000,109,0x00,0x79
3.631575680000000,109,0x00,0x73
3.631587720000000,109,0x00,0x70
3.631599760000000,109,0x00,0x70
3.631611780000000,109,0x00,0x6E
3.631623820000000,109,0x00,0x6C
3.631635840000000,109,0x00,0x6D
3.631647880000000,109,0x00,0x76
3.631659920000000,109,0x00,0x7C
3.631671940000000,109,0x00,0x82
3.631687420000000,109,0x00,0x88
3.631699460000000,109,0x00,0x8C
3.631711480000000,109,0x00,0x8C
3.631723520000000,109,0x00,0x89
3.631735540000000,109,0x00,0x85
3.631747580000000,109,0x00,0x7E
3.631759620000000,109,0x00,0x76
3.631771640000000,109,0x00,0x72
3.631783680000000,109,0x00,0x73
3.631795720000000,109,0x00,0x71
3.631807740000000,109,0x00,0x71
3.631819780000000,109,0x00,0x6D
3.631831800000000,109,0x00,0x6D
3.631843840000000,109,0x00,0x70
3.631855880000000,109,0x00,0x72
3.631867900000000,109,0x00,0x73
3.631879940000000,109,0x00,0x79
3.631891980000000,109,0x00,0x84
3.631904000000000,109,0x00,0x8A
3.631916040000000,109,0x00,0x8C
3.631928080000000,109,0x00,0x8C
3.631940100000000,109,0x00,0x8E
3.631952140000000,109,0x00,0x8B
3.631964180000000,109,0x00,0x84
3.631976200000000,109,0x00,0x7C
3.631988240000000,109,0x00,0x77
3.632000280000000,109,0x00,0x75
3.632012300000000,109,0x00,0x71
3.632024340000000,109,0x00,0x6E
3.632036380000000,109,0x00,0x6D
3.632048400000000,109,0x00,0x6B
3.632060440000000,109,0x00,0x69
3.632072480000000,109,0x00,0x67
3.632084500000000,109,0x00,0x64
3.632096540000000,109,0x00,0x61
3.632108580000000,109,0x00,0x61
3.632120600000000,109,0x00,0x68
3.632132640000000,109,0x00,0x71
3.632144660000000,109,0x00,0x79
3.632156700000000,109,0x00,0x7E
3.632168720000000,109,0x00,0x85
3.632180760000000,109,0x00,0x91
3.632192800000000,109,0x00,0xA2
3.632204820000000,109,0x00,0xB0
3.632216860000000,109,0x00,0xBB
3.632228880000000,109,0x00,0xC6
3.632240920000000,109,0x00,0xCF
3.632252960000000,109,0x00,0xD7
3.632264980000000,109,0x00,0xDD
3.632277020000000,109,0x00,0xE2
3.632289060000000,109,0x00,0xE3
3.632301080000000,109,0x00,0xE6
3.632313120000000,109,0x00,0xE8
3.632325160000000,109,0x00,0xEC
3.632337180000000,109,0x00,0xEE
3.632349220000000,109,0x00,0xF0
3.632361260000000,109,0x00,0xEF
3.632373280000000,109,0x00,0xF1
3.632385320000000,109,0x00,0xF2
3.632397360000000,109,0x00,0xF2
3.632409380000000,109,0x00,0xDD
3.632421420000000,109,0x00,0xDA
3.632433460000000,109,0x00,0xD4
3.632445480000000,109,0x00,0xCF
3.632457520000000,109,0x00,0xC7
3.632469540000000,109,0x00,0xBF
3.632481580000000,109,0x00,0xB7
3.632493620000000,109,0x00,0xAE
3.632505660000000,109,0x00,0xA6
3.632517680000000,109,0x00,0xA2
3.632529720000000,109,0x00,0x9F
3.632541740000000,109,0x00,0x9B
3.632553780000000,109,0x00,0x98
3.632565800000000,109,0x00,0x96
3.632577840000000,109,0x00,0x91
3.632589880000000,109,0x00,0x88
3.632601900000000,109,0x00,0x85
3.632613940000000,109,0x00,0x83
3.632625960000000,109,0x00,0x84
3.632638000000000,109,0x00,0x87
3.632650040000000,109,0x00,0x8B
3.632662080000000,109,0x00,0x8A
3.632674100000000,109,0x00,0x82
3.632686120000000,109,0x00,0x73
3.632703180000000,109,0x00,0x6A
3.632715200000000,109,0x00,0x65
3.632727240000000,109,0x00,0x5F
3.632739280000000,109,0x00,0x5A
3.632751300000000,109,0x00,0x59
3.632763340000000,109,0x00,0x5D
3.632775360000000,109,0x00,0x62
3.632787400000000,109,0x00,0x65
3.632799440000000,109,0x00,0x69
3.632811460000000,109,0x00,0x6E
3.632823500000000,109,0x00,0x6E
3.632835520000000,109,0x00,0x72
3.632847560000000,109,0x00,0x75
3.632859580000000,109,0x00,0x75
3.632871620000000,109,0x00,0x73
3.632883640000000,109,0x00,0x71
3.632895680000000,109,0x00,0x71
3.632907700000000,109,0x00,0x70
3.632919740000000,109,0x00,0x6C
3.632931760000000,109,0x00,0x69
3.632943800000000,109,0x00,0x6A
3.632955820000000,109,0x00,0x69
3.632967860000000,109,0x00,0x6A
3.632979900000000,109,0x00,0x6B
3.632991920000000,109,0x00,0x6C
3.633003960000000,109,0x00,0x6C
3.633015980000000,109,0x00,0x6A
3.633028020000000,109,0x00,0x6B
3.633040060000000,109,0x00,0x6D
3.633052080000000,109,0x00,0x70
3.633064120000000,109,0x00,0x70
3.633076140000000,109,0x00,0x6C
3.633088180000000,109,0x00,0x6B
3.633100220000000,109,0x00,0x6B
3.633112240000000,109,0x00,0x6B
3.633124280000000,109,0x00,0x68
3.633136320000000,109,0x00,0x65
3.633148340000000,109,0x00,0x60
3.633160380000000,109,0x00,0x5E
3.633172420000000,109,0x00,0x5A
3.633184440000000,109,0x00,0x5B
3.633196480000000,109,0x00,0x61
3.633208520000000,109,0x00,0x63
3.633220540000000,109,0x00,0x64
3.633232580000000,109,0x00,0x63
3.633244600000000,109,0x00,0x60
3.633256640000000,109,0x00,0x5E
3.633268680000000,109,0x00,0x58
3.633280700000000,109,0x00,0x55
3.633292740000000,109,0x00,0x5A
3.633304760000000,109,0x00,0x5F
3.633316800000000,109,0x00,0x60
3.633328840000000,109,0x00,0x61
3.633340860000000,109,0x00,0x66
3.633352900000000,109,0x00,0x66
3.633364920000000,109,0x00,0x61
3.633376960000000,109,0x00,0x61
3.633389000000000,109,0x00,0x66
3.633401020000000,109,0x00,0x6A
3.633413060000000,109,0x00,0x6C
3.633425100000000,109,0x00,0x6B
3.633437120000000,109,0x00,0x6C
3.633449160000000,109,0x00,0x72
3.633461180000000,109,0x00,0x7E
3.633473220000000,109,0x00,0x83
3.633485260000000,109,0x00,0x86
3.633497280000000,109,0x00,0x85
3.633509320000000,109,0x00,0x88
3.633521340000000,109,0x00,0x92
3.633533380000000,109,0x00,0x98
3.633545400000000,109,0x00,0x97
3.633557440000000,109,0x00,0x90
3.633569460000000,109,0x00,0x87
3.633581500000000,109,0x00,0x82
3.633593520000000,109,0x00,0x7F
3.633605560000000,109,0x00,0x80
3.633617580000000,109,0x00,0x82
3.633629620000000,109,0x00,0x7B
3.633641660000000,109,0x00,0x72
3.633653680000000,109,0x00,0x66
3.633665720000000,109,0x00,0x5E
3.633677740000000,109,0x00,0x5B
3.633689780000000,109,0x00,0x5A
3.633701820000000,109,0x00,0x5B
3.633718780000000,109,0x00,0x60
3.633730820000000,109,0x00,0x68
3.633742840000000,109,0x00,0x73
3.633754880000000,109,0x00,0x7B
3.633766920000000,109,0x00,0x82
3.633778940000000,109,0x00,0x8B
3.633790980000000,109,0x00,0x90
3.633803020000000,109,0x00,0x93
3.633815040000000,109,0x00,0x93
3.633827080000000,109,0x00,0x94
3.633839120000000,109,0x00,0x92
3.633851140000000,109,0x00,0x8D
3.633863180000000,109,0x00,0x8A
3.633875200000000,109,0x00,0x88
3.633887240000000,109,0x00,0x82
3.633899280000000,109,0x00,0x7C
3.633911320000000,109,0x00,0x73
3.633923340000000,109,0x00,0x6F
3.633935380000000,109,0x00,0x6D
3.633947400000000,109,0x00,0x6B
3.633959440000000,109,0x00,0x6D
3.633971480000000,109,0x00,0x72
3.633983500000000,109,0x00,0x75
3.633995540000000,109,0x00,0x77
3.634007580000000,109,0x00,0x7C
3.634019600000000,109,0x00,0x81
3.634031640000000,109,0x00,0x84
3.634043660000000,109,0x00,0x83
3.634055700000000,109,0x00,0x86
3.634067740000000,109,0x00,0x85
3.634079760000000,109,0x00,0x80
3.634091800000000,109,0x00,0x79
3.634103820000000,109,0x00,0x76
3.634115860000000,109,0x00,0x71
3.634127900000000,109,0x00,0x6D
3.634139940000000,109,0x00,0x69
3.634151960000000,109,0x00,0x69
3.634164000000000,109,0x00,0x6D
3.634176020000000,109,0x00,0x6E
3.634188060000000,109,0x00,0x70
3.634200100000000,109,0x00,0x75
3.634212120000000,109,0x00,0x7B
3.634224160000000,109,0x00,0x81
3.634236200000000,109,0x00,0x82
3.634248220000000,109,0x00,0x83
3.634260260000000,109,0x00,0x88
3.634272300000000,109,0x00,0x8B
3.634284320000000,109,0x00,0x8A
3.634296340000000,109,0x00,0x87
3.634308380000000,109,0x00,0x83
3.634320420000000,109,0x00,0x80
3.634332440000000,109,0x00,0x79
3.634344480000000,109,0x00,0x73
3.634356500000000,109,0x00,0x72
3.634368540000000,109,0x00,0x6E
3.634380560000000,109,0x00,0x69
3.634392600000000,109,0x00,0x65
3.634404620000000,109,0x00,0x61
3.634416660000000,109,0x00,0x5D
3.634428680000000,109,0x00,0x5B
3.634440720000000,109,0x00,0x60
3.634452760000000,109,0x00,0x68
3.634464800000000,109,0x00,0x6D
3.634476820000000,109,0x00,0x70
3.634488860000000,109,0x00,0x74
3.634500880000000,109,0x00,0x7E
3.634512920000000,109,0x00,0x90
3.634524960000000,109,0x00,0xA2
3.634536980000000,109,0x00,0xAF
3.634549020000000,109,0x00,0xBD
3.634561060000000,109,0x00,0xC7
3.634573080000000,109,0x00,0xD1
3.634585120000000,109,0x00,0xD8
3.634597160000000,109,0x00,0xDD
3.634609180000000,109,0x00,0xE0
3.634621220000000,109,0x00,0xE5
3.634633260000000,109,0x00,0xE7
3.634645280000000,109,0x00,0xEA
3.634657320000000,109,0x00,0xED
3.634669360000000,109,0x00,0xED
3.634681380000000,109,0x00,0xEF
3.634693420000000,109,0x00,0xF1
3.634705440000000,109,0x00,0xF2
3.634723020000000,109,0x00,0xF3
3.634735040000000,109,0x00,0xDF
3.634747060000000,109,0x00,0xDA
3.634759100000000,109,0x00,0xD6
3.634771120000000,109,0x00,0xCF
3.634783160000000,109,0x00,0xCA
3.634795180000000,109,0x00,0xC2
3.634807220000000,109,0x00,0xBC
3.634819260000000,109,0x00,0xB3
3.634831280000000,109,0x00,0xAC
3.634843320000000,109,0x00,0xA9
3.634855340000000,109,0x00,0xA7
3.634867380000000,109,0x00,0xA2
3.634879420000000,109,0x00,0x9E
3.634891440000000,109,0x00,0x97
3.634903480000000,109,0x00,0x8E
3.634915500000000,109,0x00,0x82
3.634927540000000,109,0x00,0x7A
3.634939560000000,109,0x00,0x73
3.634951600000000,109,0x00,0x72
3.634963640000000,109,0x00,0x76
3.634975660000000,109,0x00,0x78
3.634987700000000,109,0x00,0x79
3.634999720000000,109,0x00,0x73
3.635011760000000,109,0x00,0x68
3.635023800000000,109,0x00,0x62
3.635035820000000,109,0x00,0x5E
3.635047860000000,109,0x00,0x5B
3.635059880000000,109,0x00,0x59
3.635071920000000,109,0x00,0x5A
3.635083960000000,109,0x00,0x5D
3.635095980000000,109,0x00,0x62
3.635108020000000,109,0x00,0x65
3.635120040000000,109,0x00,0x6C
3.635132080000000,109,0x00,0x74
3.635144120000000,109,0x00,0x78
3.635156140000000,109,0x00,0x7D
3.635168180000000,109,0x00,0x81
3.635180220000000,109,0x00,0x83
3.635192240000000,109,0x00,0x84
3.635204280000000,109,0x00,0x82
3.635216320000000,109,0x00,0x83
3.635228340000000,109,0x00,0x82
3.635240380000000,109,0x00,0x7E
3.635252420000000,109,0x00,0x79
3.635264440000000,109,0x00,0x77
3.635276480000000,109,0x00,0x76
3.635288500000000,109,0x00,0x75
3.635300540000000,109,0x00,0x74
3.635312580000000,109,0x00,0x74
3.635324600000000,109,0x00,0x74
3.635336640000000,109,0x00,0x71
3.635348660000000,109,0x00,0x6E
3.635360700000000,109,0x00,0x6F
3.635372720000000,109,0x00,0x75
3.635384760000000,109,0x00,0x79
3.635396780000000,109,0x00,0x79
3.635408820000000,109,0x00,0x77
3.635420860000000,109,0x00,0x76
3.635432900000000,109,0x00,0x72
3.635444940000000,109,0x00,0x70
3.635456960000000,109,0x00,0x6A
3.635469000000000,109,0x00,0x65
3.635481040000000,109,0x00,0x61
3.635493060000000,109,0x00,0x60
3.635505100000000,109,0x00,0x61
3.635517140000000,109,0x00,0x64
3.635529160000000,109,0x00,0x66
3.635541200000000,109,0x00,0x66
3.635553240000000,109,0x00,0x63
3.635565260000000,109,0x00,0x64
3.635577300000000,109,0x00,0x61
3.635589320000000,109,0x00,0x59
3.635601360000000,109,0x00,0x56
3.635613400000000,109,0x00,0x59
3.635625440000000,109,0x00,0x5C
3.635637460000000,109,0x00,0x5D
3.635649500000000,109,0x00,0x5F
3.635661520000000,109,0x00,0x63
3.635673560000000,109,0x00,0x63
3.635685600000000,109,0x00,0x5E
3.635697640000000,109,0x00,0x5D
3.635709660000000,109,0x00,0x60
3.635721700000000,109,0x00,0x62
3.635740660000000,109,0x00,0x66
3.635752700000000,109,0x00,0x66
3.635764720000000,109,0x00,0x65
3.635776760000000,109,0x00,0x6B
3.635788800000000,109,0x00,0x72
3.635800840000000,109,0x00,0x75
3.635812860000000,109,0x00,0x76
3.635824900000000,109,0x00,0x75
3.635836940000000,109,0x00,0x78
3.635848980000000,109,0x00,0x83
3.635861000000000,109,0x00,0x8D
3.635873040000000,109,0x00,0x90
3.635885080000000,109,0x00,0x8A
3.635897100000000,109,0x00,0x88
3.635909140000000,109,0x00,0x88
3.635921160000000,109,0x00,0x89
3.635933200000000,109,0x00,0x8E
3.635945220000000,109,0x00,0x8E
3.635957260000000,109,0x00,0x8C
3.635969300000000,109,0x00,0x84
3.635981340000000,109,0x00,0x76
3.635993360000000,109,0x00,0x6B
3.636005400000000,109,0x00,0x64
3.636017440000000,109,0x00,0x5F
3.636029460000000,109,0x00,0x5E
3.636041500000000,109,0x00,0x62
3.636053540000000,109,0x00,0x67
3.636065560000000,109,0x00,0x6D
3.636077600000000,109,0x00,0x70
3.636089640000000,109,0x00,0x75
3.636101660000000,109,0x00,0x7B
3.636113700000000,109,0x00,0x7E
3.636125720000000,109,0x00,0x81
3.636137760000000,109,0x00,0x87
3.636149800000000,109,0x00,0x8B
3.636161820000000,109,0x00,0x8F
3.636173860000000,109,0x00,0x90
3.636185900000000,109,0x00,0x90
3.636197920000000,109,0x00,0x90
3.636209960000000,109,0x00,0x8D
3.636221980000000,109,0x00,0x87
3.636234020000000,109,0x00,0x7B
3.636246040000000,109,0x00,0x73
3.636258080000000,109,0x00,0x71
3.636270120000000,109,0x00,0x6D
3.636282140000000,109,0x00,0x6D
3.636294180000000,109,0x00,0x6E
3.636306220000000,109,0x00,0x71
3.636318240000000,109,0x00,0x71
3.636330280000000,109,0x00,0x72
3.636342320000000,109,0x00,0x72
3.636354360000000,109,0x00,0x74
3.636366380000000,109,0x00,0x76
3.636378420000000,109,0x00,0x7C
3.636390460000000,109,0x00,0x84
3.636402480000000,109,0x00,0x87
3.636414520000000,109,0x00,0x81
3.636426540000000,109,0x00,0x7C
3.636438580000000,109,0x00,0x73
3.636450620000000,109,0x00,0x6E
3.636462640000000,109,0x00,0x68
3.636474680000000,109,0x00,0x67
3.636486700000000,109,0x00,0x6B
3.636498740000000,109,0x00,0x6D
3.636510780000000,109,0x00,0x6F
3.636522820000000,109,0x00,0x71
3.636534840000000,109,0x00,0x74
3.636546880000000,109,0x00,0x77
3.636558900000000,109,0x00,0x76
3.636570940000000,109,0x00,0x75
3.636582980000000,109,0x00,0x7D
3.636595000000000,109,0x00,0x84
3.636607040000000,109,0x00,0x89
3.636619080000000,109,0x00,0x89
3.636631100000000,109,0x00,0x88
3.636643140000000,109,0x00,0x87
3.636655180000000,109,0x00,0x80
3.636667200000000,109,0x00,0x7D
3.636679240000000,109,0x00,0x7B
3.636691260000000,109,0x00,0x76
3.636703300000000,109,0x00,0x6E
3.636715340000000,109,0x00,0x66
3.636727360000000,109,0x00,0x62
3.636739400000000,109,0x00,0x5E
3.636756340000000,109,0x00,0x5B
3.636768380000000,109,0x00,0x5E
3.636780400000000,109,0x00,0x67
3.636792440000000,109,0x00,0x68
3.636804480000000,109,0x00,0x6A
3.636816500000000,109,0x00,0x6B
3.636828520000000,109,0x00,0x70
3.636840560000000,109,0x00,0x83
3.636852600000000,109,0x00,0x95
3.636864620000000,109,0x00,0xA4
3.636876660000000,109,0x00,0xB2
3.636888680000000,109,0x00,0xC0
3.636900720000000,109,0x00,0xCB
3.636912740000000,109,0x00,0xD4
3.636924780000000,109,0x00,0xDA
3.636936820000000,109,0x00,0xDF
3.636948840000000,109,0x00,0xE2
3.636960880000000,109,0x00,0xE5
3.636972900000000,109,0x00,0xE9
3.636984940000000,109,0x00,0xEA
3.636996960000000,109,0x00,0xEC
3.637009000000000,109,0x00,0xEF
3.637021020000000,109,0x00,0xEF
3.637033060000000,109,0x00,0xF1
3.637045080000000,109,0x00,0xF1
3.637057120000000,109,0x00,0xDD
3.637069140000000,109,0x00,0xDA
3.637081180000000,109,0x00,0xD5
3.637093220000000,109,0x00,0xCF
3.637105240000000,109,0x00,0xCA
3.637117280000000,109,0x00,0xC4
3.637129300000000,109,0x00,0xBD
3.637141340000000,109,0x00,0xB4
3.637153380000000,109,0x00,0xAF
3.637165420000000,109,0x00,0xAD
3.637177440000000,109,0x00,0xA8
3.637189480000000,109,0x00,0xA3
3.637201500000000,109,0x00,0x9A
3.637213540000000,109,0x00,0x8E
3.637225580000000,109,0x00,0x83
3.637237600000000,109,0x00,0x72
3.637249640000000,109,0x00,0x68
3.637261680000000,109,0x00,0x64
3.637273720000000,109,0x00,0x65
3.637285740000000,109,0x00,0x68
3.637297780000000,109,0x00,0x6E
3.637309800000000,109,0x00,0x70
3.637321840000000,109,0x00,0x6D
3.637333880000000,109,0x00,0x65
3.637345900000000,109,0x00,0x5F
3.637357940000000,109,0x00,0x60
3.637369980000000,109,0x00,0x5C
3.637382000000000,109,0x00,0x5E
3.637394040000000,109,0x00,0x5F
3.637406080000000,109,0x00,0x64
3.637418100000000,109,0x00,0x68
3.637430140000000,109,0x00,0x6D
3.637442160000000,109,0x00,0x75
3.637454200000000,109,0x00,0x80
3.637466240000000,109,0x00,0x85
3.637478260000000,109,0x00,0x8D
3.637490300000000,109,0x00,0x90
3.637502320000000,109,0x00,0x91
3.637514360000000,109,0x00,0x91
3.637526380000000,109,0x00,0x8E
3.637538420000000,109,0x00,0x8D
3.637550460000000,109,0x00,0x8F
3.637562480000000,109,0x00,0x8D
3.637574520000000,109,0x00,0x8C
3.637586560000000,109,0x00,0x89
3.637598580000000,109,0x00,0x88
3.637610620000000,109,0x00,0x85
3.637622660000000,109,0x00,0x80
3.637634680000000,109,0x00,0x82
3.637646700000000,109,0x00,0x7F
3.637658740000000,109,0x00,0x7A
3.637670780000000,109,0x00,0x78
3.637682800000000,109,0x00,0x77
3.637694820000000,109,0x00,0x7B
3.637706860000000,109,0x00,0x83
3.637718880000000,109,0x00,0x89
3.637730900000000,109,0x00,0x88
3.637742940000000,109,0x00,0x86
3.637758300000000,109,0x00,0x82
3.637770320000000,109,0x00,0x7D
3.637782360000000,109,0x00,0x76
3.637794380000000,109,0x00,0x70
3.637806420000000,109,0x00,0x6A
3.637818460000000,109,0x00,0x65
3.637830480000000,109,0x00,0x66
3.637842520000000,109,0x00,0x6B
3.637854560000000,109,0x00,0x67
3.637866580000000,109,0x00,0x6B
3.637878600000000,109,0x00,0x6D
3.637890640000000,109,0x00,0x6F
3.637902680000000,109,0x00,0x6D
3.637914700000000,109,0x00,0x63
3.637926740000000,109,0x00,0x5F
3.637938760000000,109,0x00,0x5F
3.637950800000000,109,0x00,0x5F
3.637962820000000,109,0x00,0x5F
3.637974860000000,109,0x00,0x60
3.637986880000000,109,0x00,0x62
3.637998920000000,109,0x00,0x63
3.638010940000000,109,0x00,0x62
3.638022980000000,109,0x00,0x5F
3.638035000000000,109,0x00,0x62
3.638047040000000,109,0x00,0x63
3.638059060000000,109,0x00,0x62
3.638071100000000,109,0x00,0x64
3.638083120000000,109,0x00,0x64
3.638095160000000,109,0x00,0x67
3.638107200000000,109,0x00,0x69
3.638119220000000,109,0x00,0x6C
3.638131260000000,109,0x00,0x6C
3.638143280000000,109,0x00,0x6B
3.638155320000000,109,0x00,0x6C
3.638167360000000,109,0x00,0x73
3.638179380000000,109,0x00,0x7C
3.638191420000000,109,0x00,0x7D
3.638203440000000,109,0x00,0x79
3.638215480000000,109,0x00,0x78
3.638227500000000,109,0x00,0x82
3.638239540000000,109,0x00,0x89
3.638251580000000,109,0x00,0x8F
3.638263600000000,109,0x00,0x94
3.638275640000000,109,0x00,0x95
3.638287660000000,109,0x00,0x92
3.638299700000000,109,0x00,0x87
3.638311720000000,109,0x00,0x7D
3.638323760000000,109,0x00,0x70
3.638335780000000,109,0x00,0x67
3.638347820000000,109,0x00,0x64
3.638359860000000,109,0x00,0x6A
3.638371880000000,109,0x00,0x6A
3.638383920000000,109,0x00,0x6A
3.638395960000000,109,0x00,0x68
3.638407980000000,109,0x00,0x6A
3.638420020000000,109,0x00,0x6E
3.638432040000000,109,0x00,0x6D
3.638444080000000,109,0x00,0x6F
3.638456120000000,109,0x00,0x73
3.638468140000000,109,0x00,0x7B
3.638480180000000,109,0x00,0x83
3.638492200000000,109,0x00,0x87
3.638504240000000,109,0x00,0x8A
3.638516260000000,109,0x00,0x8C
3.638528300000000,109,0x00,0x8F
3.638540320000000,109,0x00,0x8E
3.638552360000000,109,0x00,0x88
3.638564380000000,109,0x00,0x7C
3.638576420000000,109,0x00,0x78
3.638588440000000,109,0x00,0x70
3.638600480000000,109,0x00,0x6C
3.638612520000000,109,0x00,0x6D
3.638624540000000,109,0x00,0x6D
3.638636580000000,109,0x00,0x6E
3.638648620000000,109,0x00,0x6E
3.638660640000000,109,0x00,0x6F
3.638672680000000,109,0x00,0x6D
3.638684700000000,109,0x00,0x69
3.638696740000000,109,0x00,0x6F
3.638708780000000,109,0x00,0x7A
3.638720800000000,109,0x00,0x84
3.638732840000000,109,0x00,0x84
3.638744860000000,109,0x00,0x80
3.638756900000000,109,0x00,0x79
3.638774240000000,109,0x00,0x71
3.638786280000000,109,0x00,0x69
3.638798300000000,109,0x00,0x65
3.638810340000000,109,0x00,0x67
3.638822380000000,109,0x00,0x68
3.638834400000000,109,0x00,0x6C
3.638846440000000,109,0x00,0x6D
3.638858460000000,109,0x00,0x6F
3.638870500000000,109,0x00,0x70
3.638882540000000,109,0x00,0x6E
3.638894560000000,109,0x00,0x6D
3.638906600000000,109,0x00,0x76
3.638918620000000,109,0x00,0x79
3.638930660000000,109,0x00,0x7F
3.638942700000000,109,0x00,0x7F
3.638954720000000,109,0x00,0x82
3.638966760000000,109,0x00,0x84
3.638978780000000,109,0x00,0x82
3.638990820000000,109,0x00,0x82
3.639002840000000,109,0x00,0x82
3.639014880000000,109,0x00,0x7F
3.639026900000000,109,0x00,0x76
3.639038940000000,109,0x00,0x6D
3.639050980000000,109,0x00,0x66
3.639063000000000,109,0x00,0x63
3.639075040000000,109,0x00,0x5E
3.639087060000000,109,0x00,0x5F
3.639099100000000,109,0x00,0x64
3.639111120000000,109,0x00,0x67
3.639123160000000,109,0x00,0x68
3.639135200000000,109,0x00,0x69
3.639147220000000,109,0x00,0x6D
3.639159260000000,109,0x00,0x7A
3.639171280000000,109,0x00,0x8A
3.639183320000000,109,0x00,0x97
3.639195360000000,109,0x00,0xA9
3.639207380000000,109,0x00,0xB7
3.639219420000000,109,0x00,0xC3
3.639231440000000,109,0x00,0xCD
3.639243480000000,109,0x00,0xD4
3.639255520000000,109,0x00,0xDA
3.639267540000000,109,0x00,0xDE
3.639279580000000,109,0x00,0xE3
3.639291620000000,109,0x00,0xE7
3.639303640000000,109,0x00,0xE9
3.639315680000000,109,0x00,0xEC
3.639327720000000,109,0x00,0xED
3.639339740000000,109,0x00,0xEF
3.639351780000000,109,0x00,0xF0
3.639363820000000,109,0x00,0xF1
3.639375840000000,109,0x00,0xDD
3.639387880000000,109,0x00,0xDB
3.639399900000000,109,0x00,0xD6
3.639411940000000,109,0x00,0xCF
3.639423980000000,109,0x00,0xCC
3.639436000000000,109,0x00,0xC4
3.639448040000000,109,0x00,0xBC
3.639460080000000,109,0x00,0xB3
3.639472100000000,109,0x00,0xA9
3.639484140000000,109,0x00,0xA6
3.639496160000000,109,0x00,0xA1
3.639508200000000,109,0x00,0x98
3.639520220000000,109,0x00,0x8E
3.639532260000000,109,0x00,0x7E
3.639544300000000,109,0x00,0x71
3.639556320000000,109,0x00,0x62
3.639568360000000,109,0x00,0x5C
3.639580400000000,109,0x00,0x5A
3.639592420000000,109,0x00,0x5E
3.639604460000000,109,0x00,0x62
3.639616480000000,109,0x00,0x66
3.639628520000000,109,0x00,0x6B
3.639640540000000,109,0x00,0x6B
3.639652580000000,109,0x00,0x68
3.639664600000000,109,0x00,0x63
3.639676640000000,109,0x00,0x65
3.639688660000000,109,0x00,0x64
3.639700700000000,109,0x00,0x69
3.639712740000000,109,0x00,0x6E
3.639724760000000,109,0x00,0x72
3.639736800000000,109,0x00,0x76
3.639748840000000,109,0x00,0x7A
3.639760860000000,109,0x00,0x81
3.639772900000000,109,0x00,0x8C
3.639789740000000,109,0x00,0x92
3.639801780000000,109,0x00,0x97
3.639813800000000,109,0x00,0x9A
3.639825840000000,109,0x00,0x9B
3.639837860000000,109,0x00,0x99
3.639849900000000,109,0x00,0x95
3.639861940000000,109,0x00,0x93
3.639873960000000,109,0x00,0x94
3.639886000000000,109,0x00,0x94
3.639898040000000,109,0x00,0x96
3.639910060000000,109,0x00,0x96
3.639922100000000,109,0x00,0x95
3.639934140000000,109,0x00,0x91
3.639946160000000,109,0x00,0x8C
3.639958200000000,109,0x00,0x89
3.639970220000000,109,0x00,0x8B
3.639982260000000,109,0x00,0x88
3.639994300000000,109,0x00,0x87
3.640006320000000,109,0x00,0x84
3.640018360000000,109,0x00,0x87
3.640030380000000,109,0x00,0x8F
3.640042420000000,109,0x00,0x95
3.640054460000000,109,0x00,0x96
3.640066480000000,109,0x00,0x95
3.640078520000000,109,0x00,0x91
3.640090540000000,109,0x00,0x8D
3.640102580000000,109,0x00,0x86
3.640114620000000,109,0x00,0x7F
3.640126640000000,109,0x00,0x74
3.640138680000000,109,0x00,0x70
3.640150720000000,109,0x00,0x6E
3.640162740000000,109,0x00,0x72
3.640174780000000,109,0x00,0x74
3.640186800000000,109,0x00,0x76
3.640198840000000,109,0x00,0x7A
3.640210860000000,109,0x00,0x7E
3.640222900000000,109,0x00,0x7D
3.640234940000000,109,0x00,0x71
3.640246960000000,109,0x00,0x69
3.640259000000000,109,0x00,0x65
3.640271020000000,109,0x00,0x65
3.640283060000000,109,0x00,0x63
3.640295080000000,109,0x00,0x63
3.640307120000000,109,0x00,0x64
3.640319140000000,109,0x00,0x65
3.640331180000000,109,0x00,0x65
3.640343220000000,109,0x00,0x69
3.640355240000000,109,0x00,0x6A
3.640367280000000,109,0x00,0x68
3.640379320000000,109,0x00,0x66
3.640391340000000,109,0x00,0x65
3.640403380000000,109,0x00,0x65
3.640415420000000,109,0x00,0x64
3.640427440000000,109,0x00,0x64
3.640439480000000,109,0x00,0x65
3.640451500000000,109,0x00,0x68
3.640463540000000,109,0x00,0x66
3.640475560000000,109,0x00,0x65
3.640487600000000,109,0x00,0x68
3.640499620000000,109,0x00,0x6D
3.640511660000000,109,0x00,0x6F
3.640523700000000,109,0x00,0x6A
3.640535740000000,109,0x00,0x69
3.640547760000000,109,0x00,0x73
3.640559800000000,109,0x00,0x7E
3.640571820000000,109,0x00,0x89
3.640583860000000,109,0x00,0x93
3.640595900000000,109,0x00,0x96
3.640607920000000,109,0x00,0x98
3.640619960000000,109,0x00,0x92
3.640631980000000,109,0x00,0x8B
3.640644020000000,109,0x00,0x81
3.640656040000000,109,0x00,0x75
3.640668080000000,109,0x00,0x71
3.640680100000000,109,0x00,0x75
3.640692140000000,109,0x00,0x74
3.640704160000000,109,0x00,0x6D
3.640716200000000,109,0x00,0x66
3.640728240000000,109,0x00,0x64
3.640740260000000,109,0x00,0x65
3.640752300000000,109,0x00,0x66
3.640764340000000,109,0x00,0x64
3.640776360000000,109,0x00,0x66
3.640794080000000,109,0x00,0x6F
3.640806120000000,109,0x00,0x78
3.640818140000000,109,0x00,0x7A
3.640830180000000,109,0x00,0x7D
3.640842200000000,109,0x00,0x80
3.640854240000000,109,0x00,0x87
3.640866260000000,109,0x00,0x8C
3.640878280000000,109,0x00,0x8C
3.640890320000000,109,0x00,0x88
3.640902360000000,109,0x00,0x81
3.640914380000000,109,0x00,0x77
3.640926420000000,109,0x00,0x71
3.640938440000000,109,0x00,0x6F
3.640950480000000,109,0x00,0x6E
3.640962520000000,109,0x00,0x70
3.640974540000000,109,0x00,0x70
3.640986580000000,109,0x00,0x70
3.640998620000000,109,0x00,0x6B
3.641010640000000,109,0x00,0x64
3.641022680000000,109,0x00,0x66
3.641034720000000,109,0x00,0x70
3.641046740000000,109,0x00,0x7A
3.641058780000000,109,0x00,0x7E
3.641070820000000,109,0x00,0x7F
3.641082840000000,109,0x00,0x7B
3.641094880000000,109,0x00,0x75
3.641106900000000,109,0x00,0x6D
3.641118940000000,109,0x00,0x67
3.641130980000000,109,0x00,0x65
3.641143000000000,109,0x00,0x65
3.641155040000000,109,0x00,0x68
3.641167060000000,109,0x00,0x6A
3.641179100000000,109,0x00,0x69
3.641191140000000,109,0x00,0x6D
3.641203160000000,109,0x00,0x69
3.641215200000000,109,0x00,0x6B
3.641227220000000,109,0x00,0x71
3.641239260000000,109,0x00,0x74
3.641251280000000,109,0x00,0x75
3.641263320000000,109,0x00,0x74
3.641275360000000,109,0x00,0x75
3.641287400000000,109,0x00,0x77
3.641299420000000,109,0x00,0x79
3.641311460000000,109,0x00,0x7D
3.641323480000000,109,0x00,0x85
3.641335520000000,109,0x00,0x84
3.641347560000000,109,0x00,0x7E
3.641359600000000,109,0x00,0x78
3.641371620000000,109,0x00,0x72
3.641383660000000,109,0x00,0x6C
3.641395680000000,109,0x00,0x64
3.641407720000000,109,0x00,0x64
3.641419760000000,109,0x00,0x66
3.641431780000000,109,0x00,0x69
3.641443820000000,109,0x00,0x69
3.641455840000000,109,0x00,0x6A
3.641467880000000,109,0x00,0x6D
3.641479920000000,109,0x00,0x74
3.641491940000000,109,0x00,0x80
3.641503980000000,109,0x00,0x8D
3.641516020000000,109,0x00,0x9F
3.641528040000000,109,0x00,0xAF
3.641540080000000,109,0x00,0xBD
3.641552100000000,109,0x00,0xC7
3.641564140000000,109,0x00,0xD0
3.641576180000000,109,0x00,0xD6
3.641588200000000,109,0x00,0xDC
3.641600240000000,109,0x00,0xDF
3.641612260000000,109,0x00,0xE4
3.641624300000000,109,0x00,0xE6
3.641636340000000,109,0x00,0xEA
3.641648360000000,109,0x00,0xEC
3.641660400000000,109,0x00,0xEE
3.641672420000000,109,0x00,0xEF
3.641684460000000,109,0x00,0xF1
3.641696500000000,109,0x00,0xDE
3.641708540000000,109,0x00,0xDA
3.641720560000000,109,0x00,0xD6
3.641732600000000,109,0x00,0xD0
3.641744620000000,109,0x00,0xCB
3.641756660000000,109,0x00,0xC2
3.641768700000000,109,0x00,0xB8
3.641780740000000,109,0x00,0xAC
3.641792760000000,109,0x00,0xA1
3.641811580000000,109,0x00,0x9A
3.641823620000000,109,0x00,0x91
3.641835640000000,109,0x00,0x88
3.641847680000000,109,0x00,0x7E
3.641859720000000,109,0x00,0x71
3.641871740000000,109,0x00,0x66
3.641883780000000,109,0x00,0x5A
3.641895820000000,109,0x00,0x57
3.641907840000000,109,0x00,0x59
3.641919880000000,109,0x00,0x5D
3.641931920000000,109,0x00,0x62
3.641943960000000,109,0x00,0x68
3.641955980000000,109,0x00,0x6D
3.641968020000000,109,0x00,0x70
3.641980040000000,109,0x00,0x6F
3.641992080000000,109,0x00,0x6D
3.642004120000000,109,0x00,0x6D
3.642016160000000,109,0x00,0x70
3.642028180000000,109,0x00,0x76
3.642040220000000,109,0x00,0x7F
3.642052240000000,109,0x00,0x84
3.642064280000000,109,0x00,0x88
3.642076320000000,109,0x00,0x87
3.642088340000000,109,0x00,0x8C
3.642100380000000,109,0x00,0x91
3.642112400000000,109,0x00,0x94
3.642124440000000,109,0x00,0x98
3.642136460000000,109,0x00,0x99
3.642148500000000,109,0x00,0x99
3.642160540000000,109,0x00,0x95
3.642172560000000,109,0x00,0x90
3.642184600000000,109,0x00,0x8F
3.642196620000000,109,0x00,0x90
3.642208660000000,109,0x00,0x92
3.642220700000000,109,0x00,0x95
3.642232740000000,109,0x00,0x97
3.642244760000000,109,0x00,0x97
3.642256800000000,109,0x00,0x93
3.642268820000000,109,0x00,0x8D
3.642280860000000,109,0x00,0x89
3.642292900000000,109,0x00,0x8A
3.642304920000000,109,0x00,0x8E
3.642316960000000,109,0x00,0x8F
3.642328980000000,109,0x00,0x90
3.642341020000000,109,0x00,0x92
3.642353060000000,109,0x00,0x95
3.642365080000000,109,0x00,0x99
3.642377120000000,109,0x00,0x9C
3.642389160000000,109,0x00,0x9C
3.642401180000000,109,0x00,0x98
3.642413220000000,109,0x00,0x96
3.642425260000000,109,0x00,0x92
3.642437280000000,109,0x00,0x8C
3.642449320000000,109,0x00,0x86
3.642461360000000,109,0x00,0x80
3.642473380000000,109,0x00,0x81
3.642485420000000,109,0x00,0x85
3.642497440000000,109,0x00,0x87
3.642509480000000,109,0x00,0x8B
3.642521500000000,109,0x00,0x8C
3.642533540000000,109,0x00,0x8E
3.642545560000000,109,0x00,0x8C
3.642557600000000,109,0x00,0x83
3.642569640000000,109,0x00,0x79
3.642581660000000,109,0x00,0x73
3.642593700000000,109,0x00,0x70
3.642605720000000,109,0x00,0x6F
3.642617760000000,109,0x00,0x6E
3.642629800000000,109,0x00,0x6D
3.642641820000000,109,0x00,0x6B
3.642653860000000,109,0x00,0x68
3.642665880000000,109,0x00,0x71
3.642677920000000,109,0x00,0x74
3.642689960000000,109,0x00,0x70
3.642701980000000,109,0x00,0x6D
3.642714020000000,109,0x00,0x6B
3.642726040000000,109,0x00,0x68
3.642738080000000,109,0x00,0x64
3.642750120000000,109,0x00,0x61
3.642762140000000,109,0x00,0x5E
3.642774180000000,109,0x00,0x61
3.642786220000000,109,0x00,0x62
3.642798240000000,109,0x00,0x61
3.642815580000000,109,0x00,0x63
3.642827620000000,109,0x00,0x63
3.642839660000000,109,0x00,0x62
3.642851680000000,109,0x00,0x5D
3.642863720000000,109,0x00,0x5D
3.642875740000000,109,0x00,0x64
3.642887780000000,109,0x00,0x6F
3.642899820000000,109,0x00,0x7B
3.642911860000000,109,0x00,0x85
3.642923880000000,109,0x00,0x8C
3.642935920000000,109,0x00,0x91
3.642947940000000,109,0x00,0x91
3.642959980000000,109,0x00,0x8F
3.642972020000000,109,0x00,0x8C
3.642984060000000,109,0x00,0x84
3.642996080000000,109,0x00,0x80
3.643008120000000,109,0x00,0x81
3.643020160000000,109,0x00,0x7F
3.643032180000000,109,0x00,0x77
3.643044220000000,109,0x00,0x68
3.643056260000000,109,0x00,0x62
3.643068280000000,109,0x00,0x64
3.643080320000000,109,0x00,0x64
3.643092340000000,109,0x00,0x61
3.643104380000000,109,0x00,0x63
3.643116400000000,109,0x00,0x69
3.643128440000000,109,0x00,0x71
3.643140460000000,109,0x00,0x73
3.643152500000000,109,0x00,0x73
3.643164540000000,109,0x00,0x77
3.643176560000000,109,0x00,0x7B
3.643188600000000,109,0x00,0x81
3.643200640000000,109,0x00,0x86
3.643212660000000,109,0x00,0x89
3.643224700000000,109,0x00,0x87
3.643236720000000,109,0x00,0x7F
3.643248760000000,109,0x00,0x7A
3.643260800000000,109,0x00,0x79
3.643272840000000,109,0x00,0x77
3.643284860000000,109,0x00,0x7A
3.643296900000000,109,0x00,0x79
3.643308920000000,109,0x00,0x75
3.643320960000000,109,0x00,0x6E
3.643333000000000,109,0x00,0x64
3.643345020000000,109,0x00,0x62
3.643357060000000,109,0x00,0x69
3.643369080000000,109,0x00,0x6F
3.643381120000000,109,0x00,0x74
3.643393140000000,109,0x00,0x76
3.643405180000000,109,0x00,0x78
3.643417220000000,109,0x00,0x77
3.643429240000000,109,0x00,0x73
3.643441260000000,109,0x00,0x6D
3.643453300000000,109,0x00,0x6A
3.643465340000000,109,0x00,0x66
3.643477380000000,109,0x00,0x67
3.643489400000000,109,0x00,0x69
3.643501440000000,109,0x00,0x6B
3.643513460000000,109,0x00,0x6C
3.643525500000000,109,0x00,0x6B
3.643537540000000,109,0x00,0x6D
3.643549560000000,109,0x00,0x6F
3.643561600000000,109,0x00,0x70
3.643573640000000,109,0x00,0x6F
3.643585660000000,109,0x00,0x6A
3.643597700000000,109,0x00,0x69
3.643609720000000,109,0x00,0x6A
3.643621760000000,109,0x00,0x6E
3.643633780000000,109,0x00,0x73
3.643645820000000,109,0x00,0x7E
3.643657840000000,109,0x00,0x81
3.643669880000000,109,0x00,0x83
3.643681900000000,109,0x00,0x82
3.643693940000000,109,0x00,0x7F
3.643705960000000,109,0x00,0x7B
3.643718000000000,109,0x00,0x71
3.643730040000000,109,0x00,0x6E
3.643742060000000,109,0x00,0x70
3.643754100000000,109,0x00,0x6E
3.643766120000000,109,0x00,0x6A
3.643778160000000,109,0x00,0x67
3.643790200000000,109,0x00,0x69
3.643802220000000,109,0x00,0x6E
3.643814260000000,109,0x00,0x75
3.643829760000000,109,0x00,0x82
3.643841800000000,109,0x00,0x96
3.643853840000000,109,0x00,0xA6
3.643865860000000,109,0x00,0xB4
3.643877900000000,109,0x00,0xBF
3.643889920000000,109,0x00,0xC9
3.643901960000000,109,0x00,0xD1
3.643914000000000,109,0x00,0xD6
3.643926020000000,109,0x00,0xDB
3.643938060000000,109,0x00,0xE1
3.643950100000000,109,0x00,0xE5
3.643962120000000,109,0x00,0xE8
3.643974160000000,109,0x00,0xEA
3.643986180000000,109,0x00,0xEC
3.643998220000000,109,0x00,0xEE
3.644010260000000,109,0x00,0xEF
3.644022280000000,109,0x00,0xDE
3.644034320000000,109,0x00,0xDB
3.644046340000000,109,0x00,0xD5
3.644058380000000,109,0x00,0xCF
3.644070400000000,109,0x00,0xC8
3.644082420000000,109,0x00,0xBD
3.644094460000000,109,0x00,0xB2
3.644106480000000,109,0x00,0xA3
3.644118520000000,109,0x00,0x94
3.644130540000000,109,0x00,0x89
3.644142580000000,109,0x00,0x81
3.644154620000000,109,0x00,0x78
3.644166640000000,109,0x00,0x72
3.644178680000000,109,0x00,0x6A
3.644190720000000,109,0x00,0x64
3.644202740000000,109,0x00,0x5C
3.644214780000000,109,0x00,0x5B
3.644226820000000,109,0x00,0x5E
3.644238840000000,109,0x00,0x60
3.644250880000000,109,0x00,0x66
3.644262920000000,109,0x00,0x6D
3.644274960000000,109,0x00,0x73
3.644286980000000,109,0x00,0x78
3.644299020000000,109,0x00,0x79
3.644311040000000,109,0x00,0x7B
3.644323080000000,109,0x00,0x7A
3.644335120000000,109,0x00,0x7D
3.644347140000000,109,0x00,0x81
3.644359180000000,109,0x00,0x8C
3.644371200000000,109,0x00,0x91
3.644383240000000,109,0x00,0x92
3.644395280000000,109,0x00,0x90
3.644407300000000,109,0x00,0x8D
3.644419340000000,109,0x00,0x8C
3.644431360000000,109,0x00,0x8A
3.644443400000000,109,0x00,0x8C
3.644455440000000,109,0x00,0x8C
3.644467460000000,109,0x00,0x8C
3.644479500000000,109,0x00,0x89
3.644491540000000,109,0x00,0x84
3.644503560000000,109,0x00,0x82
3.644515600000000,109,0x00,0x84
3.644527640000000,109,0x00,0x84
3.644539660000000,109,0x00,0x89
3.644551700000000,109,0x00,0x8D
3.644563740000000,109,0x00,0x8E
3.644575760000000,109,0x00,0x8C
3.644587800000000,109,0x00,0x84
3.644599840000000,109,0x00,0x7F
3.644611860000000,109,0x00,0x7F
3.644623900000000,109,0x00,0x83
3.644635920000000,109,0x00,0x8A
3.644647960000000,109,0x00,0x8D
3.644660000000000,109,0x00,0x8D
3.644672020000000,109,0x00,0x8F
3.644684060000000,109,0x00,0x91
3.644696100000000,109,0x00,0x96
3.644708120000000,109,0x00,0x97
3.644720160000000,109,0x00,0x95
3.644732200000000,109,0x00,0x91
3.644744220000000,109,0x00,0x90
3.644756260000000,109,0x00,0x8D
3.644768280000000,109,0x00,0x8E
3.644780320000000,109,0x00,0x8D
3.644792340000000,109,0x00,0x8E
3.644804380000000,109,0x00,0x93
3.644816400000000,109,0x00,0x94
3.644828440000000,109,0x00,0x95
3.644845620000000,109,0x00,0x94
3.644857660000000,109,0x00,0x94
3.644869680000000,109,0x00,0x92
3.644881720000000,109,0x00,0x8D
3.644893760000000,109,0x00,0x87
3.644905780000000,109,0x00,0x85
3.644917820000000,109,0x00,0x82
3.644929840000000,109,0x00,0x81
3.644941880000000,109,0x00,0x7F
3.644953900000000,109,0x00,0x7C
3.644965920000000,109,0x00,0x76
3.644977960000000,109,0x00,0x73
3.644989980000000,109,0x00,0x78
3.645002020000000,109,0x00,0x80
3.645014040000000,109,0x00,0x7B
3.645026080000000,109,0x00,0x78
3.645038100000000,109,0x00,0x78
3.645050140000000,109,0x00,0x6F
3.645062160000000,109,0x00,0x67
3.645074200000000,109,0x00,0x5D
3.645086220000000,109,0x00,0x57
3.645098260000000,109,0x00,0x5A
3.645110280000000,109,0x00,0x5C
3.645122320000000,109,0x00,0x5C
3.645134340000000,109,0x00,0x5F
3.645146380000000,109,0x00,0x62
3.645158420000000,109,0x00,0x5E
3.645170440000000,109,0x00,0x58
3.645182480000000,109,0x00,0x56
3.645194500000000,109,0x00,0x5B
3.645206540000000,109,0x00,0x63
3.645218580000000,109,0x00,0x6B
3.645230600000000,109,0x00,0x74
3.645242640000000,109,0x00,0x7C
3.645254660000000,109,0x00,0x81
3.645266700000000,109,0x00,0x84
3.645278740000000,109,0x00,0x86
3.645290760000000,109,0x00,0x89
3.645302800000000,109,0x00,0x8B
3.645314840000000,109,0x00,0x8A
3.645326860000000,109,0x00,0x88
3.645338900000000,109,0x00,0x86
3.645350920000000,109,0x00,0x7C
3.645362960000000,109,0x00,0x71
3.645374980000000,109,0x00,0x6C
3.645387020000000,109,0x00,0x69
3.645399040000000,109,0x00,0x67
3.645411080000000,109,0x00,0x65
3.645423100000000,109,0x00,0x65
3.645435140000000,109,0x00,0x69
3.645447180000000,109,0x00,0x6D
3.645459200000000,109,0x00,0x6E
3.645471240000000,109,0x00,0x70
3.645483280000000,109,0x00,0x70
3.645495300000000,109,0x00,0x72
3.645507340000000,109,0x00,0x76
3.645519360000000,109,0x00,0x7D
3.645531400000000,109,0x00,0x81
3.645543440000000,109,0x00,0x82
3.645555460000000,109,0x00,0x7F
3.645567500000000,109,0x00,0x7F
3.645579540000000,109,0x00,0x80
3.645591560000000,109,0x00,0x81
3.645603600000000,109,0x00,0x83
3.645615640000000,109,0x00,0x81
3.645627660000000,109,0x00,0x7D
3.645639700000000,109,0x00,0x75
3.645651720000000,109,0x00,0x6B
3.645663760000000,109,0x00,0x67
3.645675800000000,109,0x00,0x6A
3.645687820000000,109,0x00,0x69
3.645699860000000,109,0x00,0x6C
3.645711880000000,109,0x00,0x6E
3.645723920000000,109,0x00,0x73
3.645735960000000,109,0x00,0x78
3.645747980000000,109,0x00,0x79
3.645760020000000,109,0x00,0x78
3.645772040000000,109,0x00,0x74
3.645784080000000,109,0x00,0x71
3.645796120000000,109,0x00,0x6F
3.645808140000000,109,0x00,0x6D
3.645820180000000,109,0x00,0x6D
3.645832200000000,109,0x00,0x6E
3.645849280000000,109,0x00,0x6A
3.645861300000000,109,0x00,0x69
3.645873340000000,109,0x00,0x6D
3.645885380000000,109,0x00,0x6E
3.645897400000000,109,0x00,0x6B
3.645909440000000,109,0x00,0x66
3.645921480000000,109,0x00,0x62
3.645933500000000,109,0x00,0x63
3.645945540000000,109,0x00,0x64
3.645957580000000,109,0x00,0x6B
3.645969600000000,109,0x00,0x75
3.645981640000000,109,0x00,0x78
3.645993680000000,109,0x00,0x7C
3.646005720000000,109,0x00,0x82
3.646017740000000,109,0x00,0x87
3.646029780000000,109,0x00,0x88
3.646041800000000,109,0x00,0x83
3.646053840000000,109,0x00,0x7D
3.646065860000000,109,0x00,0x7A
3.646077900000000,109,0x00,0x73
3.646089920000000,109,0x00,0x68
3.646101960000000,109,0x00,0x63
3.646114000000000,109,0x00,0x64
3.646126020000000,109,0x00,0x65
3.646138060000000,109,0x00,0x6C
3.646150080000000,109,0x00,0x79
3.646162120000000,109,0x00,0x8D
3.646174140000000,109,0x00,0x9E
3.646186180000000,109,0x00,0xAB
3.646198200000000,109,0x00,0xB9
3.646210240000000,109,0x00,0xC3
3.646222280000000,109,0x00,0xCA
3.646234300000000,109,0x00,0xD0
3.646246340000000,109,0x00,0xD8
3.646258380000000,109,0x00,0xDD
3.646270400000000,109,0x00,0xE1
3.646282440000000,109,0x00,0xE6
3.646294460000000,109,0x00,0xEA
3.646306500000000,109,0x00,0xEC
3.646318540000000,109,0x00,0xED
3.646330580000000,109,0x00,0xEE
3.646342600000000,109,0x00,0xDD
3.646354640000000,109,0x00,0xD8
3.646366660000000,109,0x00,0xD3
3.646378700000000,109,0x00,0xCC
3.646390740000000,109,0x00,0xC2
3.646402760000000,109,0x00,0xB7
3.646414800000000,109,0x00,0xA8
3.646426840000000,109,0x00,0x97
3.646438860000000,109,0x00,0x87
3.646450900000000,109,0x00,0x79
3.646462940000000,109,0x00,0x70
3.646474960000000,109,0x00,0x6B
3.646487000000000,109,0x00,0x6A
3.646499020000000,109,0x00,0x69
3.646511060000000,109,0x00,0x6A
3.646523100000000,109,0x00,0x65
3.646535120000000,109,0x00,0x64
3.646547160000000,109,0x00,0x68
3.646559200000000,109,0x00,0x6B
3.646571240000000,109,0x00,0x71
3.646583260000000,109,0x00,0x78
3.646595300000000,109,0x00,0x80
3.646607320000000,109,0x00,0x86
3.646619360000000,109,0x00,0x8A
3.646631400000000,109,0x00,0x8C
3.646643440000000,109,0x00,0x8C
3.646655460000000,109,0x00,0x8C
3.646667500000000,109,0x00,0x8C
3.646679540000000,109,0x00,0x8F
3.646691560000000,109,0x00,0x91
3.646703600000000,109,0x00,0x8F
3.646715620000000,109,0x00,0x88
3.646727660000000,109,0x00,0x82
3.646739700000000,109,0x00,0x7F
3.646751720000000,109,0x00,0x7A
3.646763760000000,109,0x00,0x78
3.646775800000000,109,0x00,0x7A
3.646787820000000,109,0x00,0x7B
3.646799860000000,109,0x00,0x7A
3.646811900000000,109,0x00,0x73
3.646823920000000,109,0x00,0x71
3.646835960000000,109,0x00,0x74
3.646848000000000,109,0x00,0x75
3.646865540000000,109,0x00,0x77
3.646877580000000,109,0x00,0x79
3.646889620000000,109,0x00,0x7B
3.646901640000000,109,0x00,0x7B
3.646913680000000,109,0x00,0x74
3.646925700000000,109,0x00,0x6D
3.646937740000000,109,0x00,0x6B
3.646949780000000,109,0x00,0x6D
3.646961820000000,109,0x00,0x73
3.646973840000000,109,0x00,0x79
3.646985880000000,109,0x00,0x7E
3.646997920000000,109,0x00,0x7F
3.647009940000000,109,0x00,0x7D
3.647021980000000,109,0x00,0x82
3.647034020000000,109,0x00,0x88
3.647046040000000,109,0x00,0x85
3.647058080000000,109,0x00,0x81
3.647070120000000,109,0x00,0x7F
3.647082140000000,109,0x00,0x82
3.647094180000000,109,0x00,0x85
3.647106220000000,109,0x00,0x8B
3.647118240000000,109,0x00,0x8E
3.647130280000000,109,0x00,0x91
3.647142320000000,109,0x00,0x93
3.647154340000000,109,0x00,0x91
3.647166380000000,109,0x00,0x8F
3.647178400000000,109,0x00,0x8C
3.647190440000000,109,0x00,0x8D
3.647202480000000,109,0x00,0x8B
3.647214520000000,109,0x00,0x8A
3.647226540000000,109,0x00,0x8A
3.647238580000000,109,0x00,0x8A
3.647250600000000,109,0x00,0x89
3.647262640000000,109,0x00,0x8A
3.647274680000000,109,0x00,0x89
3.647286700000000,109,0x00,0x86
3.647298740000000,109,0x00,0x83
3.647310760000000,109,0x00,0x88
3.647322800000000,109,0x00,0x8D
3.647334820000000,109,0x00,0x8E
3.647346860000000,109,0x00,0x8C
3.647358900000000,109,0x00,0x89
3.647370920000000,109,0x00,0x7E
3.647382960000000,109,0x00,0x6F
3.647394980000000,109,0x00,0x5F
3.647407020000000,109,0x00,0x56
3.647419060000000,109,0x00,0x54
3.647431080000000,109,0x00,0x57
3.647443120000000,109,0x00,0x59
3.647455140000000,109,0x00,0x5F
3.647467180000000,109,0x00,0x63
3.647479220000000,109,0x00,0x60
3.647491240000000,109,0x00,0x58
3.647503280000000,109,0x00,0x54
3.647515320000000,109,0x00,0x57
3.647527340000000,109,0x00,0x5C
3.647539380000000,109,0x00,0x62
3.647551420000000,109,0x00,0x66
3.647563440000000,109,0x00,0x6C
3.647575480000000,109,0x00,0x71
3.647587520000000,109,0x00,0x72
3.647599540000000,109,0x00,0x73
3.647611580000000,109,0x00,0x7E
3.647623600000000,109,0x00,0x87
3.647635640000000,109,0x00,0x89
3.647647680000000,109,0x00,0x88
3.647659700000000,109,0x00,0x86
3.647671740000000,109,0x00,0x81
3.647683780000000,109,0x00,0x7A
3.647695800000000,109,0x00,0x76
3.647707840000000,109,0x00,0x73
3.647719880000000,109,0x00,0x72
3.647731900000000,109,0x00,0x6B
3.647743940000000,109,0x00,0x69
3.647755980000000,109,0x00,0x69
3.647768000000000,109,0x00,0x6C
3.647780040000000,109,0x00,0x6D
3.647792080000000,109,0x00,0x6D
3.647804100000000,109,0x00,0x6E
3.647816120000000,109,0x00,0x6C
3.647828160000000,109,0x00,0x71
3.647840200000000,109,0x00,0x75
3.647852240000000,109,0x00,0x76
3.647864260000000,109,0x00,0x75
3.647883220000000,109,0x00,0x75
3.647895260000000,109,0x00,0x76
3.647907300000000,109,0x00,0x7B
3.647919320000000,109,0x00,0x7D
3.647931360000000,109,0x00,0x83
3.647943380000000,109,0x00,0x86
3.647955420000000,109,0x00,0x86
3.647967460000000,109,0x00,0x81
3.647979480000000,109,0x00,0x76
3.647991520000000,109,0x00,0x71
3.648003540000000,109,0x00,0x70
3.648015580000000,109,0x00,0x6D
3.648027620000000,109,0x00,0x6B
3.648039640000000,109,0x00,0x6D
3.648051680000000,109,0x00,0x70
3.648063700000000,109,0x00,0x79
3.648075740000000,109,0x00,0x81
3.648087780000000,109,0x00,0x84
3.648099800000000,109,0x00,0x86
3.648111840000000,109,0x00,0x82
3.648123860000000,109,0x00,0x7F
3.648135900000000,109,0x00,0x7B
3.648147940000000,109,0x00,0x75
3.648159960000000,109,0x00,0x70
3.648172000000000,109,0x00,0x6A
3.648184020000000,109,0x00,0x69
3.648196060000000,109,0x00,0x6E
3.648208100000000,109,0x00,0x6D
3.648220120000000,109,0x00,0x6A
3.648232160000000,109,0x00,0x64
3.648244180000000,109,0x00,0x62
3.648256220000000,109,0x00,0x63
3.648268240000000,109,0x00,0x63
3.648280280000000,109,0x00,0x67
3.648292320000000,109,0x00,0x6C
3.648304340000000,109,0x00,0x6D
3.648316380000000,109,0x00,0x70
3.648328400000000,109,0x00,0x79
3.648340440000000,109,0x00,0x83
3.648352480000000,109,0x00,0x8A
3.648364500000000,109,0x00,0x89
3.648376540000000,109,0x00,0x88
3.648388560000000,109,0x00,0x86
3.648400600000000,109,0x00,0x7B
3.648412640000000,109,0x00,0x6E
3.648424660000000,109,0x00,0x65
3.648436700000000,109,0x00,0x61
3.648448720000000,109,0x00,0x63
3.648460760000000,109,0x00,0x68
3.648472800000000,109,0x00,0x73
3.648484820000000,109,0x00,0x85
3.648496860000000,109,0x00,0x94
3.648508900000000,109,0x00,0xA3
3.648520920000000,109,0x00,0xAE
3.648532960000000,109,0x00,0xB9
3.648545000000000,109,0x00,0xC3
3.648557020000000,109,0x00,0xC9
3.648569060000000,109,0x00,0xD1
3.648581100000000,109,0x00,0xD9
3.648593120000000,109,0x00,0xDF
3.648605160000000,109,0x00,0xE2
3.648617200000000,109,0x00,0xE7
3.648629220000000,109,0x00,0xE8
3.648641260000000,109,0x00,0xEB
3.648653300000000,109,0x00,0xED
3.648665320000000,109,0x00,0xDC
3.648677360000000,109,0x00,0xD7
3.648689400000000,109,0x00,0xD1
3.648701420000000,109,0x00,0xC9
3.648713460000000,109,0x00,0xBD
3.648725500000000,109,0x00,0xB0
3.648737520000000,109,0x00,0xA0
3.648749560000000,109,0x00,0x8B
3.648761580000000,109,0x00,0x78
3.648773620000000,109,0x00,0x6B
3.648785660000000,109,0x00,0x65
3.648797680000000,109,0x00,0x61
3.648809720000000,109,0x00,0x65
3.648821740000000,109,0x00,0x6C
3.648833780000000,109,0x00,0x74
3.648845820000000,109,0x00,0x75
3.648857840000000,109,0x00,0x77
3.648869880000000,109,0x00,0x79
3.648886700000000,109,0x00,0x7D
3.648898720000000,109,0x00,0x81
3.648910760000000,109,0x00,0x88
3.648922780000000,109,0x00,0x8C
3.648934820000000,109,0x00,0x92
3.648946840000000,109,0x00,0x93
3.648958880000000,109,0x00,0x95
3.648970920000000,109,0x00,0x97
3.648982940000000,109,0x00,0x93
3.648994980000000,109,0x00,0x8F
3.649007000000000,109,0x00,0x8D
3.649019040000000,109,0x00,0x87
3.649031060000000,109,0x00,0x80
3.649043100000000,109,0x00,0x77
3.649055120000000,109,0x00,0x72
3.649067160000000,109,0x00,0x6F
3.649079200000000,109,0x00,0x6A
3.649091220000000,109,0x00,0x6A
3.649103260000000,109,0x00,0x6A
3.649115280000000,109,0x00,0x6C
3.649127320000000,109,0x00,0x6B
3.649139360000000,109,0x00,0x67
3.649151380000000,109,0x00,0x66
3.649163420000000,109,0x00,0x68
3.649175440000000,109,0x00,0x67
3.649187480000000,109,0x00,0x67
3.649199520000000,109,0x00,0x68
3.649211540000000,109,0x00,0x6A
3.649223580000000,109,0x00,0x6B
3.649235620000000,109,0x00,0x65
3.649247640000000,109,0x00,0x5E
3.649259680000000,109,0x00,0x5D
3.649271720000000,109,0x00,0x5C
3.649283740000000,109,0x00,0x60
3.649295780000000,109,0x00,0x64
3.649307820000000,109,0x00,0x6B
3.649319840000000,109,0x00,0x6C
3.649331880000000,109,0x00,0x6A
3.649343920000000,109,0x00,0x6F
3.649355940000000,109,0x00,0x74
3.649367980000000,109,0x00,0x74
3.649380020000000,109,0x00,0x70
3.649392040000000,109,0x00,0x6F
3.649404080000000,109,0x00,0x6F
3.649416120000000,109,0x00,0x75
3.649428140000000,109,0x00,0x79
3.649440180000000,109,0x00,0x7E
3.649452200000000,109,0x00,0x83
3.649464240000000,109,0x00,0x83
3.649476280000000,109,0x00,0x83
3.649488300000000,109,0x00,0x7C
3.649500340000000,109,0x00,0x79
3.649512360000000,109,0x00,0x7D
3.649524400000000,109,0x00,0x7B
3.649536440000000,109,0x00,0x7D
3.649548460000000,109,0x00,0x7F
3.649560500000000,109,0x00,0x7F
3.649572520000000,109,0x00,0x81
3.649584560000000,109,0x00,0x86
3.649596600000000,109,0x00,0x89
3.649608620000000,109,0x00,0x8C
3.649620660000000,109,0x00,0x8C
3.649632680000000,109,0x00,0x90
3.649644720000000,109,0x00,0x97
3.649656760000000,109,0x00,0x99
3.649668780000000,109,0x00,0x99
3.649680820000000,109,0x00,0x97
3.649692840000000,109,0x00,0x8E
3.649704880000000,109,0x00,0x7B
3.649716920000000,109,0x00,0x68
3.649728940000000,109,0x00,0x5A
3.649740980000000,109,0x00,0x56
3.649753000000000,109,0x00,0x56
3.649765040000000,109,0x00,0x59
3.649777060000000,109,0x00,0x5F
3.649789100000000,109,0x00,0x63
3.649801140000000,109,0x00,0x5F
3.649813160000000,109,0x00,0x58
3.649825200000000,109,0x00,0x55
3.649837220000000,109,0x00,0x56
3.649849260000000,109,0x00,0x59
3.649861300000000,109,0x00,0x5C
3.649873320000000,109,0x00,0x5F
3.649885360000000,109,0x00,0x61
3.649900760000000,109,0x00,0x63
3.649912780000000,109,0x00,0x63
3.649924820000000,109,0x00,0x65
3.649936840000000,109,0x00,0x6F
3.649948880000000,109,0x00,0x79
3.649960900000000,109,0x00,0x80
3.649972940000000,109,0x00,0x84
3.649984980000000,109,0x00,0x81
3.649997000000000,109,0x00,0x7F
3.650009040000000,109,0x00,0x7C
3.650021060000000,109,0x00,0x7F
3.650033100000000,109,0x00,0x82
3.650045120000000,109,0x00,0x7C
3.650057160000000,109,0x00,0x76
3.650069180000000,109,0x00,0x72
3.650081220000000,109,0x00,0x6F
3.650093260000000,109,0x00,0x70
3.650105280000000,109,0x00,0x6E
3.650117320000000,109,0x00,0x6D
3.650129340000000,109,0x00,0x70
3.650141380000000,109,0x00,0x6E
3.650153420000000,109,0x00,0x6D
3.650165440000000,109,0x00,0x71
3.650177480000000,109,0x00,0x6D
3.650189520000000,109,0x00,0x6D
3.650201540000000,109,0x00,0x6B
3.650213580000000,109,0x00,0x6B
3.650225600000000,109,0x00,0x70
3.650237640000000,109,0x00,0x75
3.650249680000000,109,0x00,0x7B
3.650261700000000,109,0x00,0x81
3.650273740000000,109,0x00,0x84
3.650285780000000,109,0x00,0x85
3.650297800000000,109,0x00,0x7F
3.650309840000000,109,0x00,0x79
3.650321860000000,109,0x00,0x79
3.650333900000000,109,0x00,0x75
3.650345940000000,109,0x00,0x74
3.650357980000000,109,0x00,0x74
3.650370000000000,109,0x00,0x76
3.650382020000000,109,0x00,0x7F
3.650394060000000,109,0x00,0x86
3.650406100000000,109,0x00,0x8B
3.650418120000000,109,0x00,0x91
3.650430160000000,109,0x00,0x90
3.650442180000000,109,0x00,0x8C
3.650454220000000,109,0x00,0x87
3.650466240000000,109,0x00,0x7F
3.650478280000000,109,0x00,0x76
3.650490300000000,109,0x00,0x6F
3.650502340000000,109,0x00,0x6F
3.650514380000000,109,0x00,0x72
3.650526400000000,109,0x00,0x72
3.650538440000000,109,0x00,0x6D
3.650550460000000,109,0x00,0x66
3.650562500000000,109,0x00,0x61
3.650574520000000,109,0x00,0x65
3.650586560000000,109,0x00,0x64
3.650598600000000,109,0x00,0x66
3.650610620000000,109,0x00,0x67
3.650622660000000,109,0x00,0x65
3.650634680000000,109,0x00,0x64
3.650646720000000,109,0x00,0x6A
3.650658760000000,109,0x00,0x75
3.650670780000000,109,0x00,0x7E
3.650682820000000,109,0x00,0x81
3.650694840000000,109,0x00,0x84
3.650706880000000,109,0x00,0x84
3.650718920000000,109,0x00,0x7C
3.650730940000000,109,0x00,0x72
3.650742980000000,109,0x00,0x6A
3.650755020000000,109,0x00,0x65
3.650767040000000,109,0x00,0x64
3.650779080000000,109,0x00,0x67
3.650791120000000,109,0x00,0x71
3.650803140000000,109,0x00,0x7F
3.650815180000000,109,0x00,0x8C
3.650827200000000,109,0x00,0x98
3.650839240000000,109,0x00,0xA3
3.650851260000000,109,0x00,0xAF
3.650863300000000,109,0x00,0xBA
3.650875340000000,109,0x00,0xC4
3.650887360000000,109,0x00,0xCC
3.650899400000000,109,0x00,0xD5
3.650916480000000,109,0x00,0xDB
3.650928520000000,109,0x00,0xE1
3.650940560000000,109,0x00,0xE5
3.650952580000000,109,0x00,0xE8
3.650964620000000,109,0x00,0xEB
3.650976660000000,109,0x00,0xED
3.650988680000000,109,0x00,0xDB
3.651000720000000,109,0x00,0xD6
3.651012740000000,109,0x00,0xCF
3.651024780000000,109,0x00,0xC5
3.651036820000000,109,0x00,0xB9
3.651048840000000,109,0x00,0xAA
3.651060880000000,109,0x00,0x9A
3.651072920000000,109,0x00,0x83
3.651084940000000,109,0x00,0x6E
3.651096980000000,109,0x00,0x63
3.651109020000000,109,0x00,0x60
3.651121040000000,109,0x00,0x60
3.651133080000000,109,0x00,0x69
3.651145100000000,109,0x00,0x75
3.651157140000000,109,0x00,0x81
3.651169160000000,109,0x00,0x85
3.651181200000000,109,0x00,0x8B
3.651193240000000,109,0x00,0x8D
3.651205260000000,109,0x00,0x8C
3.651217280000000,109,0x00,0x8C
3.651229320000000,109,0x00,0x8D
3.651241360000000,109,0x00,0x8F
3.651253380000000,109,0x00,0x8E
3.651265420000000,109,0x00,0x8F
3.651277440000000,109,0x00,0x90
3.651289480000000,109,0x00,0x92
3.651301520000000,109,0x00,0x8E
3.651313540000000,109,0x00,0x86
3.651325580000000,109,0x00,0x7D
3.651337620000000,109,0x00,0x75
3.651349640000000,109,0x00,0x6D
3.651361680000000,109,0x00,0x62
3.651373720000000,109,0x00,0x5E
3.651385740000000,109,0x00,0x60
3.651397780000000,109,0x00,0x5E
3.651409820000000,109,0x00,0x62
3.651421840000000,109,0x00,0x61
3.651433880000000,109,0x00,0x62
3.651445900000000,109,0x00,0x63
3.651457940000000,109,0x00,0x60
3.651469980000000,109,0x00,0x61
3.651482000000000,109,0x00,0x61
3.651494040000000,109,0x00,0x5E
3.651506060000000,109,0x00,0x5C
3.651518100000000,109,0x00,0x5E
3.651530140000000,109,0x00,0x60
3.651542160000000,109,0x00,0x60
3.651554200000000,109,0x00,0x5D
3.651566220000000,109,0x00,0x57
3.651578260000000,109,0x00,0x54
3.651590300000000,109,0x00,0x51
3.651602320000000,109,0x00,0x55
3.651614360000000,109,0x00,0x5A
3.651626380000000,109,0x00,0x5E
3.651638420000000,109,0x00,0x61
3.651650460000000,109,0x00,0x5E
3.651662480000000,109,0x00,0x60
3.651674520000000,109,0x00,0x66
3.651686540000000,109,0x00,0x68
3.651698580000000,109,0x00,0x67
3.651710600000000,109,0x00,0x65
3.651722640000000,109,0x00,0x64
3.651734660000000,109,0x00,0x67
3.651746680000000,109,0x00,0x6B
3.651758720000000,109,0x00,0x6C
3.651770760000000,109,0x00,0x70
3.651782780000000,109,0x00,0x6C
3.651794820000000,109,0x00,0x6B
3.651806840000000,109,0x00,0x65
3.651818880000000,109,0x00,0x66
3.651830900000000,109,0x00,0x69
3.651842940000000,109,0x00,0x69
3.651854980000000,109,0x00,0x6A
3.651867000000000,109,0x00,0x6D
3.651879040000000,109,0x00,0x6C
3.651891080000000,109,0x00,0x71
3.651903100000000,109,0x00,0x74
3.651920080000000,109,0x00,0x7C
3.651932120000000,109,0x00,0x83
3.651944140000000,109,0x00,0x87
3.651956180000000,109,0x00,0x8E
3.651968200000000,109,0x00,0x98
3.651980240000000,109,0x00,0x9D
3.651992280000000,109,0x00,0x9F
3.652004300000000,109,0x00,0xA1
3.652016340000000,109,0x00,0x99
3.652028380000000,109,0x00,0x8A
3.652040400000000,109,0x00,0x75
3.652052440000000,109,0x00,0x66
3.652064460000000,109,0x00,0x64
3.652076500000000,109,0x00,0x64
3.652088540000000,109,0x00,0x63
3.652100560000000,109,0x00,0x64
3.652112600000000,109,0x00,0x65
3.652124620000000,109,0x00,0x65
3.652136660000000,109,0x00,0x5E
3.652148700000000,109,0x00,0x59
3.652160720000000,109,0x00,0x5B
3.652172760000000,109,0x00,0x5C
3.652184780000000,109,0x00,0x5D
3.652196820000000,109,0x00,0x5E
3.652208840000000,109,0x00,0x5E
3.652220880000000,109,0x00,0x5E
3.652232920000000,109,0x00,0x5D
3.652244940000000,109,0x00,0x5C
3.652256980000000,109,0x00,0x62
3.652269000000000,109,0x00,0x6B
3.652281040000000,109,0x00,0x71
3.652293060000000,109,0x00,0x77
3.652305100000000,109,0x00,0x78
3.652317140000000,109,0x00,0x78
3.652329160000000,109,0x00,0x7A
3.652341200000000,109,0x00,0x82
3.652353240000000,109,0x00,0x88
3.652365260000000,109,0x00,0x86
3.652377300000000,109,0x00,0x80
3.652389320000000,109,0x00,0x7C
3.652401360000000,109,0x00,0x78
3.652413400000000,109,0x00,0x77
3.652425420000000,109,0x00,0x75
3.652437460000000,109,0x00,0x73
3.652449480000000,109,0x00,0x73
3.652461520000000,109,0x00,0x71
3.652473560000000,109,0x00,0x6D
3.652485580000000,109,0x00,0x69
3.652497620000000,109,0x00,0x67
3.652509640000000,109,0x00,0x67
3.652521680000000,109,0x00,0x64
3.652533720000000,109,0x00,0x66
3.652545740000000,109,0x00,0x6A
3.652557780000000,109,0x00,0x6C
3.652569820000000,109,0x00,0x6F
3.652581840000000,109,0x00,0x75
3.652593880000000,109,0x00,0x7C
3.652605900000000,109,0x00,0x7D
3.652617940000000,109,0x00,0x7A
3.652629980000000,109,0x00,0x79
3.652642000000000,109,0x00,0x7B
3.652654040000000,109,0x00,0x7C
3.652666060000000,109,0x00,0x7C
3.652678100000000,109,0x00,0x7E
3.652690140000000,109,0x00,0x7F
3.652702180000000,109,0x00,0x84
3.652714200000000,109,0x00,0x88
3.652726240000000,109,0x00,0x8F
3.652738260000000,109,0x00,0x94
3.652750300000000,109,0x00,0x96
3.652762340000000,109,0x00,0x91
3.652774380000000,109,0x00,0x8C
3.652786400000000,109,0x00,0x87
3.652798440000000,109,0x00,0x81
3.652810460000000,109,0x00,0x7A
3.652822500000000,109,0x00,0x7B
3.652834540000000,109,0x00,0x7C
3.652846560000000,109,0x00,0x7A
3.652858600000000,109,0x00,0x72
3.652870640000000,109,0x00,0x6A
3.652882660000000,109,0x00,0x65
3.652894700000000,109,0x00,0x64
3.652906740000000,109,0x00,0x63
3.652918760000000,109,0x00,0x66
3.652936060000000,109,0x00,0x66
3.652948100000000,109,0x00,0x61
3.652960120000000,109,0x00,0x5B
3.652972160000000,109,0x00,0x5D
3.652984200000000,109,0x00,0x64
3.652996220000000,109,0x00,0x6D
3.653008260000000,109,0x00,0x70
3.653020280000000,109,0x00,0x74
3.653032320000000,109,0x00,0x77
3.653044360000000,109,0x00,0x78
3.653056380000000,109,0x00,0x74
3.653068420000000,109,0x00,0x71
3.653080440000000,109,0x00,0x6D
3.653092480000000,109,0x00,0x6B
3.653104520000000,109,0x00,0x6B
3.653116540000000,109,0x00,0x71
3.653128580000000,109,0x00,0x7B
3.653140620000000,109,0x00,0x85
3.653152640000000,109,0x00,0x8E
3.653164680000000,109,0x00,0x9A
3.653176720000000,109,0x00,0xA5
3.653188740000000,109,0x00,0xB2
3.653200780000000,109,0x00,0xBC
3.653212800000000,109,0x00,0xC6
3.653224840000000,109,0x00,0xD0
3.653236860000000,109,0x00,0xD7
3.653248900000000,109,0x00,0xDE
3.653260940000000,109,0x00,0xE2
3.653272960000000,109,0x00,0xE6
3.653285000000000,109,0x00,0xE8
3.653297020000000,109,0x00,0xEC
3.653309060000000,109,0x00,0xD9
3.653321080000000,109,0x00,0xD4
3.653333120000000,109,0x00,0xCE
3.653345160000000,109,0x00,0xC4
3.653357180000000,109,0x00,0xB8
3.653369220000000,109,0x00,0xA9
3.653381240000000,109,0x00,0x98
3.653393280000000,109,0x00,0x82
3.653405300000000,109,0x00,0x6F
3.653417340000000,109,0x00,0x66
3.653429380000000,109,0x00,0x64
3.653441400000000,109,0x00,0x69
3.653453440000000,109,0x00,0x74
3.653465460000000,109,0x00,0x80
3.653477500000000,109,0x00,0x8C
3.653489520000000,109,0x00,0x92
3.653501560000000,109,0x00,0x96
3.653513580000000,109,0x00,0x96
3.653525620000000,109,0x00,0x92
3.653537660000000,109,0x00,0x8F
3.653549680000000,109,0x00,0x8A
3.653561720000000,109,0x00,0x86
3.653573740000000,109,0x00,0x82
3.653585760000000,109,0x00,0x7D
3.653597800000000,109,0x00,0x81
3.653609840000000,109,0x00,0x84
3.653621860000000,109,0x00,0x7E
3.653633900000000,109,0x00,0x76
3.653645920000000,109,0x00,0x6E
3.653657960000000,109,0x00,0x69
3.653669980000000,109,0x00,0x61
3.653682020000000,109,0x00,0x57
3.653694060000000,109,0x00,0x56
3.653706080000000,109,0x00,0x59
3.653718120000000,109,0x00,0x5B
3.653730160000000,109,0x00,0x60
3.653742180000000,109,0x00,0x60
3.653754220000000,109,0x00,0x5F
3.653766240000000,109,0x00,0x61
3.653778280000000,109,0x00,0x60
3.653790300000000,109,0x00,0x5E
3.653802340000000,109,0x00,0x5E
3.653814360000000,109,0x00,0x5A
3.653826400000000,109,0x00,0x56
3.653838420000000,109,0x00,0x58
3.653850460000000,109,0x00,0x5A
3.653862500000000,109,0x00,0x5D
3.653874520000000,109,0x00,0x5A
3.653886560000000,109,0x00,0x57
3.653898600000000,109,0x00,0x54
3.653910620000000,109,0x00,0x53
3.653922660000000,109,0x00,0x53
3.653941800000000,109,0x00,0x57
3.653953840000000,109,0x00,0x5C
3.653965860000000,109,0x00,0x5E
3.653977900000000,109,0x00,0x5B
3.653989940000000,109,0x00,0x5D
3.654001960000000,109,0x00,0x61
3.654014000000000,109,0x00,0x64
3.654026020000000,109,0x00,0x64
3.654038060000000,109,0x00,0x63
3.654050080000000,109,0x00,0x64
3.654062120000000,109,0x00,0x64
3.654074160000000,109,0x00,0x62
3.654086180000000,109,0x00,0x62
3.654098220000000,109,0x00,0x63
3.654110240000000,109,0x00,0x5D
3.654122280000000,109,0x00,0x5C
3.654134320000000,109,0x00,0x58
3.654146340000000,109,0x00,0x59
3.654158380000000,109,0x00,0x5C
3.654170400000000,109,0x00,0x5C
3.654182440000000,109,0x00,0x5D
3.654194480000000,109,0x00,0x5F
3.654206500000000,109,0x00,0x61
3.654218540000000,109,0x00,0x61
3.654230580000000,109,0x00,0x61
3.654242600000000,109,0x00,0x68
3.654254640000000,109,0x00,0x70
3.654266680000000,109,0x00,0x73
3.654278700000000,109,0x00,0x7E
3.654290720000000,109,0x00,0x8D
3.654302760000000,109,0x00,0x96
3.654314800000000,109,0x00,0x9D
3.654326820000000,109,0x00,0x9E
3.654338860000000,109,0x00,0x99
3.654350880000000,109,0x00,0x90
3.654362920000000,109,0x00,0x83
3.654374940000000,109,0x00,0x7B
3.654386980000000,109,0x00,0x7A
3.654399000000000,109,0x00,0x78
3.654411040000000,109,0x00,0x77
3.654423060000000,109,0x00,0x78
3.654435100000000,109,0x00,0x75
3.654447120000000,109,0x00,0x72
3.654459160000000,109,0x00,0x68
3.654471180000000,109,0x00,0x63
3.654483220000000,109,0x00,0x60
3.654495240000000,109,0x00,0x60
3.654507280000000,109,0x00,0x60
3.654519300000000,109,0x00,0x60
3.654531340000000,109,0x00,0x5E
3.654543360000000,109,0x00,0x5D
3.654555400000000,109,0x00,0x5B
3.654567420000000,109,0x00,0x59
3.654579460000000,109,0x00,0x5D
3.654591500000000,109,0x00,0x60
3.654603520000000,109,0x00,0x65
3.654615560000000,109,0x00,0x6A
3.654627580000000,109,0x00,0x6E
3.654639620000000,109,0x00,0x70
3.654651640000000,109,0x00,0x73
3.654663680000000,109,0x00,0x7C
3.654675720000000,109,0x00,0x87
3.654687740000000,109,0x00,0x8B
3.654699780000000,109,0x00,0x8A
3.654711800000000,109,0x00,0x85
3.654723840000000,109,0x00,0x84
3.654735860000000,109,0x00,0x84
3.654747900000000,109,0x00,0x80
3.654759920000000,109,0x00,0x7D
3.654771960000000,109,0x00,0x7D
3.654784000000000,109,0x00,0x78
3.654796020000000,109,0x00,0x6E
3.654808060000000,109,0x00,0x67
3.654820080000000,109,0x00,0x65
3.654832120000000,109,0x00,0x64
3.654844160000000,109,0x00,0x62
3.654856180000000,109,0x00,0x65
3.654868220000000,109,0x00,0x69
3.654880240000000,109,0x00,0x69
3.654892280000000,109,0x00,0x6A
3.654904320000000,109,0x00,0x6E
3.654916340000000,109,0x00,0x73
3.654928380000000,109,0x00,0x73
3.654940420000000,109,0x00,0x6F
3.654957220000000,109,0x00,0x70
3.654969260000000,109,0x00,0x74
3.654981300000000,109,0x00,0x77
3.654993320000000,109,0x00,0x7A
3.655005360000000,109,0x00,0x7A
3.655017380000000,109,0x00,0x7A
3.655029420000000,109,0x00,0x7F
3.655041460000000,109,0x00,0x83
3.655053500000000,109,0x00,0x88
3.655065520000000,109,0x00,0x8E
3.655077560000000,109,0x00,0x90
3.655089580000000,109,0x00,0x8D
3.655101620000000,109,0x00,0x88
3.655113640000000,109,0x00,0x85
3.655125680000000,109,0x00,0x83
3.655137720000000,109,0x00,0x83
3.655149740000000,109,0x00,0x86
3.655161780000000,109,0x00,0x87
3.655173820000000,109,0x00,0x81
3.655185840000000,109,0x00,0x78
3.655197880000000,109,0x00,0x6E
3.655209900000000,109,0x00,0x67
3.655221940000000,109,0x00,0x64
3.655233980000000,109,0x00,0x64
3.655246000000000,109,0x00,0x67
3.655258040000000,109,0x00,0x66
3.655270060000000,109,0x00,0x60
3.655282100000000,109,0x00,0x59
3.655294140000000,109,0x00,0x57
3.655306160000000,109,0x00,0x59
3.655318200000000,109,0x00,0x5E
3.655330220000000,109,0x00,0x60
3.655342260000000,109,0x00,0x61
3.655354280000000,109,0x00,0x68
3.655366320000000,109,0x00,0x6D
3.655378340000000,109,0x00,0x72
3.655390380000000,109,0x00,0x76
3.655402400000000,109,0x00,0x78
3.655414440000000,109,0x00,0x77
3.655426460000000,109,0x00,0x75
3.655438500000000,109,0x00,0x76
3.655450520000000,109,0x00,0x78
3.655462560000000,109,0x00,0x7C
3.655474600000000,109,0x00,0x84
3.655486620000000,109,0x00,0x92
3.655498660000000,109,0x00,0x9D
3.655510680000000,109,0x00,0xA9
3.655522700000000,109,0x00,0xB5
3.655534740000000,109,0x00,0xBE
3.655546760000000,109,0x00,0xCB
3.655558800000000,109,0x00,0xD3
3.655570820000000,109,0x00,0xDA
3.655582860000000,109,0x00,0xE0
3.655594880000000,109,0x00,0xE4
3.655606920000000,109,0x00,0xE7
3.655618940000000,109,0x00,0xEA
3.655630980000000,109,0x00,0xDA
3.655643020000000,109,0x00,0xD4
3.655655040000000,109,0x00,0xCC
3.655667080000000,109,0x00,0xC4
3.655679100000000,109,0x00,0xB9
3.655691140000000,109,0x00,0xAC
3.655703180000000,109,0x00,0x9D
3.655715200000000,109,0x00,0x8C
3.655727240000000,109,0x00,0x7E
3.655739260000000,109,0x00,0x76
3.655751300000000,109,0x00,0x74
3.655763340000000,109,0x00,0x78
3.655775360000000,109,0x00,0x7F
3.655787400000000,109,0x00,0x85
3.655799420000000,109,0x00,0x8E
3.655811460000000,109,0x00,0x91
3.655823480000000,109,0x00,0x94
3.655835520000000,109,0x00,0x93
3.655847560000000,109,0x00,0x8E
3.655859580000000,109,0x00,0x85
3.655871620000000,109,0x00,0x7E
3.655883640000000,109,0x00,0x77
3.655895680000000,109,0x00,0x6F
3.655907720000000,109,0x00,0x6B
3.655919740000000,109,0x00,0x6C
3.655931760000000,109,0x00,0x6F
3.655943800000000,109,0x00,0x6C
3.655955840000000,109,0x00,0x67
3.655971060000000,109,0x00,0x63
3.655983100000000,109,0x00,0x5F
3.655995120000000,109,0x00,0x5C
3.656007160000000,109,0x00,0x57
3.656019180000000,109,0x00,0x57
3.656031220000000,109,0x00,0x59
3.656043240000000,109,0x00,0x5C
3.656055280000000,109,0x00,0x5E
3.656067320000000,109,0x00,0x5F
3.656079340000000,109,0x00,0x5F
3.656091380000000,109,0x00,0x60
3.656103400000000,109,0x00,0x5E
3.656115440000000,109,0x00,0x5D
3.656127460000000,109,0x00,0x5D
3.656139500000000,109,0x00,0x57
3.656151520000000,109,0x00,0x55
3.656163560000000,109,0x00,0x56
3.656175580000000,109,0x00,0x59
3.656187620000000,109,0x00,0x5C
3.656199660000000,109,0x00,0x5D
3.656211680000000,109,0x00,0x5B
3.656223720000000,109,0x00,0x59
3.656235740000000,109,0x00,0x56
3.656247780000000,109,0x00,0x57
3.656259820000000,109,0x00,0x5A
3.656271840000000,109,0x00,0x5F
3.656283880000000,109,0x00,0x60
3.656295900000000,109,0x00,0x5C
3.656307940000000,109,0x00,0x5E
3.656319960000000,109,0x00,0x63
3.656332000000000,109,0x00,0x64
3.656344040000000,109,0x00,0x62
3.656356060000000,109,0x00,0x64
3.656368100000000,109,0x00,0x62
3.656380120000000,109,0x00,0x61
3.656392160000000,109,0x00,0x60
3.656404180000000,109,0x00,0x5E
3.656416220000000,109,0x00,0x5E
3.656428240000000,109,0x00,0x58
3.656440280000000,109,0x00,0x55
3.656452320000000,109,0x00,0x52
3.656464340000000,109,0x00,0x54
3.656476360000000,109,0x00,0x56
3.656488400000000,109,0x00,0x57
3.656500440000000,109,0x00,0x5A
3.656512460000000,109,0x00,0x5C
3.656524500000000,109,0x00,0x5D
3.656536520000000,109,0x00,0x5B
3.656548560000000,109,0x00,0x59
3.656560580000000,109,0x00,0x5B
3.656572620000000,109,0x00,0x5F
3.656584640000000,109,0x00,0x62
3.656596680000000,109,0x00,0x6B
3.656608700000000,109,0x00,0x7B
3.656620740000000,109,0x00,0x86
3.656632760000000,109,0x00,0x8E
3.656644800000000,109,0x00,0x92
3.656656820000000,109,0x00,0x90
3.656668840000000,109,0x00,0x8D
3.656680880000000,109,0x00,0x86
3.656692900000000,109,0x00,0x86
3.656704940000000,109,0x00,0x88
3.656716960000000,109,0x00,0x8B
3.656728980000000,109,0x00,0x8A
3.656741020000000,109,0x00,0x8B
3.656753040000000,109,0x00,0x89
3.656765080000000,109,0x00,0x84
3.656777100000000,109,0x00,0x7A
3.656789140000000,109,0x00,0x73
3.656801160000000,109,0x00,0x6D
3.656813200000000,109,0x00,0x6A
3.656825220000000,109,0x00,0x69
3.656837260000000,109,0x00,0x68
3.656849280000000,109,0x00,0x62
3.656861320000000,109,0x00,0x5E
3.656873340000000,109,0x00,0x5A
3.656885380000000,109,0x00,0x56
3.656897420000000,109,0x00,0x58
3.656909440000000,109,0x00,0x5A
3.656921480000000,109,0x00,0x5C
3.656933500000000,109,0x00,0x61
3.656945540000000,109,0x00,0x64
3.656957560000000,109,0x00,0x66
3.656974880000000,109,0x00,0x6B
3.656986920000000,109,0x00,0x75
3.656998940000000,109,0x00,0x80
3.657010980000000,109,0x00,0x84
3.657023000000000,109,0x00,0x86
3.657035040000000,109,0x00,0x89
3.657047080000000,109,0x00,0x8B
3.657059100000000,109,0x00,0x89
3.657071120000000,109,0x00,0x88
3.657083160000000,109,0x00,0x88
3.657095200000000,109,0x00,0x87
3.657107220000000,109,0x00,0x80
3.657119240000000,109,0x00,0x73
3.657131280000000,109,0x00,0x68
3.657143320000000,109,0x00,0x64
3.657155340000000,109,0x00,0x64
3.657167360000000,109,0x00,0x62
3.657179400000000,109,0x00,0x67
3.657191420000000,109,0x00,0x69
3.657203460000000,109,0x00,0x6A
3.657215480000000,109,0x00,0x6A
3.657227500000000,109,0x00,0x6B
3.657239540000000,109,0x00,0x6D
3.657251560000000,109,0x00,0x6C
3.657263580000000,109,0x00,0x67
3.657275620000000,109,0x00,0x67
3.657287640000000,109,0x00,0x6D
3.657299680000000,109,0x00,0x6D
3.657311700000000,109,0x00,0x70
3.657323720000000,109,0x00,0x70
3.657335760000000,109,0x00,0x71
3.657347780000000,109,0x00,0x74
3.657359820000000,109,0x00,0x75
3.657371840000000,109,0x00,0x7C
3.657383860000000,109,0x00,0x84
3.657395900000000,109,0x00,0x85
3.657407940000000,109,0x00,0x80
3.657419960000000,109,0x00,0x7B
3.657432000000000,109,0x00,0x78
3.657444020000000,109,0x00,0x7A
3.657456060000000,109,0x00,0x81
3.657468100000000,109,0x00,0x84
3.657480120000000,109,0x00,0x86
3.657492160000000,109,0x00,0x83
3.657504180000000,109,0x00,0x7B
3.657516220000000,109,0x00,0x71
3.657528240000000,109,0x00,0x6C
3.657540280000000,109,0x00,0x6A
3.657552300000000,109,0x00,0x69
3.657564340000000,109,0x00,0x6B
3.657576380000000,109,0x00,0x6B
3.657588400000000,109,0x00,0x62
3.657600440000000,109,0x00,0x5B
3.657612460000000,109,0x00,0x57
3.657624500000000,109,0x00,0x54
3.657636520000000,109,0x00,0x57
3.657648560000000,109,0x00,0x56
3.657660600000000,109,0x00,0x59
3.657672620000000,109,0x00,0x5F
3.657684660000000,109,0x00,0x65
3.657696680000000,109,0x00,0x6C
3.657708720000000,109,0x00,0x72
3.657720740000000,109,0x00,0x7A
3.657732780000000,109,0x00,0x7C
3.657744820000000,109,0x00,0x7C
3.657756840000000,109,0x00,0x7B
3.657768880000000,109,0x00,0x78
3.657780920000000,109,0x00,0x79
3.657792940000000,109,0x00,0x7F
3.657804980000000,109,0x00,0x89
3.657817000000000,109,0x00,0x95
3.657829040000000,109,0x00,0x9F
3.657841080000000,109,0x00,0xAD
3.657853100000000,109,0x00,0xB9
3.657865140000000,109,0x00,0xC5
3.657877160000000,109,0x00,0xCF
3.657889200000000,109,0x00,0xD6
3.657901220000000,109,0x00,0xDD
3.657913260000000,109,0x00,0xE3
3.657925300000000,109,0x00,0xE7
3.657937320000000,109,0x00,0xE8
3.657949360000000,109,0x00,0xD9
3.657961400000000,109,0x00,0xD3
3.657973420000000,109,0x00,0xCE
3.657990220000000,109,0x00,0xC6
3.658002260000000,109,0x00,0xBB
3.658014280000000,109,0x00,0xAF
3.658026320000000,109,0x00,0xA4
3.658038360000000,109,0x00,0x98
3.658050380000000,109,0x00,0x8D
3.658062420000000,109,0x00,0x87
3.658074460000000,109,0x00,0x84
3.658086500000000,109,0x00,0x82
3.658098520000000,109,0x00,0x82
3.658110560000000,109,0x00,0x82
3.658122600000000,109,0x00,0x83
3.658134620000000,109,0x00,0x83
3.658146660000000,109,0x00,0x86
3.658158680000000,109,0x00,0x86
3.658170720000000,109,0x00,0x7F
3.658182760000000,109,0x00,0x75
3.658194780000000,109,0x00,0x6D
3.658206820000000,109,0x00,0x68
3.658218840000000,109,0x00,0x63
3.658230880000000,109,0x00,0x5E
3.658242920000000,109,0x00,0x5E
3.658254940000000,109,0x00,0x5F
3.658266980000000,109,0x00,0x5E
3.658279020000000,109,0x00,0x5E
3.658291040000000,109,0x00,0x5D
3.658303080000000,109,0x00,0x5D
3.658315120000000,109,0x00,0x5C
3.658327160000000,109,0x00,0x5A
3.658339180000000,109,0x00,0x5C
3.658351220000000,109,0x00,0x5E
3.658363240000000,109,0x00,0x5F
3.658375280000000,109,0x00,0x61
3.658387320000000,109,0x00,0x60
3.658399340000000,109,0x00,0x61
3.658411380000000,109,0x00,0x64
3.658423420000000,109,0x00,0x62
3.658435440000000,109,0x00,0x62
3.658447480000000,109,0x00,0x62
3.658459520000000,109,0x00,0x5D
3.658471540000000,109,0x00,0x5B
3.658483580000000,109,0x00,0x59
3.658495620000000,109,0x00,0x5C
3.658507660000000,109,0x00,0x61
3.658519680000000,109,0x00,0x64
3.658531720000000,109,0x00,0x63
3.658543740000000,109,0x00,0x63
3.658555780000000,109,0x00,0x5E
3.658567820000000,109,0x00,0x5C
3.658579840000000,109,0x00,0x61
3.658591880000000,109,0x00,0x66
3.658603900000000,109,0x00,0x68
3.658615940000000,109,0x00,0x64
3.658627980000000,109,0x00,0x62
3.658640000000000,109,0x00,0x63
3.658652040000000,109,0x00,0x63
3.658664060000000,109,0x00,0x62
3.658676100000000,109,0x00,0x62
3.658688140000000,109,0x00,0x61
3.658700160000000,109,0x00,0x60
3.658712200000000,109,0x00,0x5F
3.658724240000000,109,0x00,0x5F
3.658736260000000,109,0x00,0x5F
3.658748300000000,109,0x00,0x59
3.658760320000000,109,0x00,0x55
3.658772360000000,109,0x00,0x54
3.658784400000000,109,0x00,0x54
3.658796420000000,109,0x00,0x55
3.658808460000000,109,0x00,0x56
3.658820480000000,109,0x00,0x59
3.658832520000000,109,0x00,0x5C
3.658844560000000,109,0x00,0x5A
3.658856580000000,109,0x00,0x57
3.658868620000000,109,0x00,0x55
3.658880640000000,109,0x00,0x57
3.658892680000000,109,0x00,0x57
3.658904700000000,109,0x00,0x59
3.658916740000000,109,0x00,0x5F
3.658928780000000,109,0x00,0x69
3.658940800000000,109,0x00,0x70
3.658952840000000,109,0x00,0x77
3.658964860000000,109,0x00,0x7B
3.658976900000000,109,0x00,0x7C
3.658988920000000,109,0x00,0x7B
3.659006480000000,109,0x00,0x7C
3.659018520000000,109,0x00,0x80
3.659030540000000,109,0x00,0x87
3.659042580000000,109,0x00,0x8C
3.659054620000000,109,0x00,0x91
3.659066640000000,109,0x00,0x93
3.659078660000000,109,0x00,0x93
3.659090700000000,109,0x00,0x93
3.659102740000000,109,0x00,0x8C
3.659114760000000,109,0x00,0x86
3.659126800000000,109,0x00,0x81
3.659138820000000,109,0x00,0x7E
3.659150860000000,109,0x00,0x7B
3.659162900000000,109,0x00,0x76
3.659174920000000,109,0x00,0x6A
3.659186940000000,109,0x00,0x61
3.659198980000000,109,0x00,0x5B
3.659211000000000,109,0x00,0x57
3.659223040000000,109,0x00,0x56
3.659235080000000,109,0x00,0x55
3.659247100000000,109,0x00,0x58
3.659259140000000,109,0x00,0x5B
3.659271160000000,109,0x00,0x5D
3.659283200000000,109,0x00,0x60
3.659295240000000,109,0x00,0x61
3.659307260000000,109,0x00,0x68
3.659319300000000,109,0x00,0x73
3.659331320000000,109,0x00,0x76
3.659343360000000,109,0x00,0x7B
3.659355400000000,109,0x00,0x82
3.659367440000000,109,0x00,0x88
3.659379460000000,109,0x00,0x8B
3.659391500000000,109,0x00,0x89
3.659403520000000,109,0x00,0x8C
3.659415560000000,109,0x00,0x8D
3.659427600000000,109,0x00,0x89
3.659439620000000,109,0x00,0x7D
3.659451660000000,109,0x00,0x6E
3.659463700000000,109,0x00,0x68
3.659475720000000,109,0x00,0x65
3.659487760000000,109,0x00,0x66
3.659499780000000,109,0x00,0x69
3.659511820000000,109,0x00,0x6B
3.659523860000000,109,0x00,0x6A
3.659535880000000,109,0x00,0x6A
3.659547920000000,109,0x00,0x6C
3.659559940000000,109,0x00,0x6A
3.659571980000000,109,0x00,0x68
3.659584000000000,109,0x00,0x62
3.659596040000000,109,0x00,0x63
3.659608080000000,109,0x00,0x65
3.659620100000000,109,0x00,0x66
3.659632140000000,109,0x00,0x67
3.659644160000000,109,0x00,0x69
3.659656200000000,109,0x00,0x68
3.659668220000000,109,0x00,0x6A
3.659680260000000,109,0x00,0x6C
3.659692300000000,109,0x00,0x72
3.659704320000000,109,0x00,0x78
3.659716360000000,109,0x00,0x76
3.659728400000000,109,0x00,0x73
3.659740420000000,109,0x00,0x6B
3.659752460000000,109,0x00,0x6A
3.659764500000000,109,0x00,0x6F
3.659776520000000,109,0x00,0x75
3.659788540000000,109,0x00,0x7B
3.659800580000000,109,0x00,0x7D
3.659812620000000,109,0x00,0x7C
3.659824640000000,109,0x00,0x76
3.659836680000000,109,0x00,0x73
3.659848700000000,109,0x00,0x72
3.659860740000000,109,0x00,0x75
3.659872760000000,109,0x00,0x74
3.659884800000000,109,0x00,0x74
3.659896820000000,109,0x00,0x70
3.659908860000000,109,0x00,0x67
3.659920880000000,109,0x00,0x5F
3.659932920000000,109,0x00,0x57
3.659944940000000,109,0x00,0x56
3.659956980000000,109,0x00,0x57
3.659969000000000,109,0x00,0x55
3.659981040000000,109,0x00,0x56
3.659993080000000,109,0x00,0x5B
3.660012260000000,109,0x00,0x62
3.660024300000000,109,0x00,0x67
3.660036320000000,109,0x00,0x69
3.660048360000000,109,0x00,0x6D
3.660060380000000,109,0x00,0x74
3.660072420000000,109,0x00,0x78
3.660084440000000,109,0x00,0x79
3.660096480000000,109,0x00,0x79
3.660108520000000,109,0x00,0x76
3.660120540000000,109,0x00,0x7B
3.660132580000000,109,0x00,0x83
3.660144600000000,109,0x00,0x8B
3.660156640000000,109,0x00,0x97
3.660168660000000,109,0x00,0xA2
3.660180700000000,109,0x00,0xB2
3.660192740000000,109,0x00,0xBE
3.660204760000000,109,0x00,0xCA
3.660216800000000,109,0x00,0xD4
3.660228840000000,109,0x00,0xD9
3.660240860000000,109,0x00,0xE0
3.660252900000000,109,0x00,0xE3
3.660264920000000,109,0x00,0xE7
3.660276940000000,109,0x00,0xD8
3.660288980000000,109,0x00,0xD4
3.660301000000000,109,0x00,0xCE
3.660313040000000,109,0x00,0xC6
3.660325060000000,109,0x00,0xBE
3.660337100000000,109,0x00,0xB4
3.660349120000000,109,0x00,0xAB
3.660361160000000,109,0x00,0x9D
3.660373180000000,109,0x00,0x94
3.660385220000000,109,0x00,0x8D
3.660397240000000,109,0x00,0x84
3.660409280000000,109,0x00,0x7F
3.660421300000000,109,0x00,0x7B
3.660433340000000,109,0x00,0x77
3.660445360000000,109,0x00,0x76
3.660457400000000,109,0x00,0x71
3.660469420000000,109,0x00,0x73
3.660481460000000,109,0x00,0x72
3.660493480000000,109,0x00,0x6B
3.660505520000000,109,0x00,0x67
3.660517540000000,109,0x00,0x63
3.660529560000000,109,0x00,0x61
3.660541600000000,109,0x00,0x60
3.660553640000000,109,0x00,0x5D
3.660565660000000,109,0x00,0x5B
3.660577680000000,109,0x00,0x58
3.660589720000000,109,0x00,0x5A
3.660601760000000,109,0x00,0x5B
3.660613780000000,109,0x00,0x5C
3.660625800000000,109,0x00,0x5C
3.660637840000000,109,0x00,0x5F
3.660649880000000,109,0x00,0x5D
3.660661900000000,109,0x00,0x62
3.660673920000000,109,0x00,0x69
3.660685960000000,109,0x00,0x69
3.660697980000000,109,0x00,0x67
3.660710020000000,109,0x00,0x67
3.660722040000000,109,0x00,0x6B
3.660734060000000,109,0x00,0x6C
3.660746100000000,109,0x00,0x6C
3.660758120000000,109,0x00,0x6F
3.660770140000000,109,0x00,0x70
3.660782180000000,109,0x00,0x6B
3.660794200000000,109,0x00,0x68
3.660806240000000,109,0x00,0x66
3.660818260000000,109,0x00,0x66
3.660830280000000,109,0x00,0x67
3.660842320000000,109,0x00,0x6B
3.660854340000000,109,0x00,0x70
3.660866380000000,109,0x00,0x70
3.660878400000000,109,0x00,0x69
3.660890420000000,109,0x00,0x66
3.660902460000000,109,0x00,0x69
3.660914500000000,109,0x00,0x6F
3.660926520000000,109,0x00,0x75
3.660938560000000,109,0x00,0x72
3.660950580000000,109,0x00,0x70
3.660962620000000,109,0x00,0x6A
3.660974660000000,109,0x00,0x68
3.660986680000000,109,0x00,0x69
3.660998720000000,109,0x00,0x69
3.661010740000000,109,0x00,0x63
3.661027720000000,109,0x00,0x64
3.661039740000000,109,0x00,0x63
3.661051780000000,109,0x00,0x67
3.661063800000000,109,0x00,0x66
3.661075840000000,109,0x00,0x63
3.661087880000000,109,0x00,0x5D
3.661099900000000,109,0x00,0x59
3.661111940000000,109,0x00,0x59
3.661123980000000,109,0x00,0x58
3.661136000000000,109,0x00,0x58
3.661148040000000,109,0x00,0x59
3.661160060000000,109,0x00,0x5A
3.661172100000000,109,0x00,0x58
3.661184120000000,109,0x00,0x55
3.661196160000000,109,0x00,0x54
3.661208200000000,109,0x00,0x55
3.661220220000000,109,0x00,0x57
3.661232260000000,109,0x00,0x56
3.661244280000000,109,0x00,0x5B
3.661256320000000,109,0x00,0x60
3.661268360000000,109,0x00,0x60
3.661280380000000,109,0x00,0x62
3.661292420000000,109,0x00,0x65
3.661304440000000,109,0x00,0x68
3.661316480000000,109,0x00,0x68
3.661328500000000,109,0x00,0x68
3.661340540000000,109,0x00,0x6D
3.661352580000000,109,0x00,0x77
3.661364600000000,109,0x00,0x7F
3.661376620000000,109,0x00,0x85
3.661388660000000,109,0x00,0x8B
3.661400700000000,109,0x00,0x90
3.661412720000000,109,0x00,0x94
3.661424760000000,109,0x00,0x94
3.661436780000000,109,0x00,0x93
3.661448820000000,109,0x00,0x93
3.661460860000000,109,0x00,0x91
3.661472880000000,109,0x00,0x8D
3.661484920000000,109,0x00,0x86
3.661496960000000,109,0x00,0x75
3.661508980000000,109,0x00,0x69
3.661521020000000,109,0x00,0x5F
3.661533060000000,109,0x00,0x59
3.661545080000000,109,0x00,0x57
3.661557120000000,109,0x00,0x56
3.661569160000000,109,0x00,0x58
3.661581180000000,109,0x00,0x59
3.661593220000000,109,0x00,0x5B
3.661605260000000,109,0x00,0x5B
3.661617280000000,109,0x00,0x5A
3.661629320000000,109,0x00,0x5C
3.661641340000000,109,0x00,0x65
3.661653380000000,109,0x00,0x68
3.661665400000000,109,0x00,0x6D
3.661677440000000,109,0x00,0x75
3.661689480000000,109,0x00,0x7E
3.661701500000000,109,0x00,0x81
3.661713540000000,109,0x00,0x82
3.661725560000000,109,0x00,0x84
3.661737600000000,109,0x00,0x8B
3.661749640000000,109,0x00,0x8A
3.661761660000000,109,0x00,0x83
3.661773700000000,109,0x00,0x78
3.661785720000000,109,0x00,0x6E
3.661797760000000,109,0x00,0x6A
3.661809800000000,109,0x00,0x6B
3.661821820000000,109,0x00,0x6E
3.661833860000000,109,0x00,0x71
3.661845900000000,109,0x00,0x6E
3.661857920000000,109,0x00,0x6C
3.661869960000000,109,0x00,0x6C
3.661881980000000,109,0x00,0x69
3.661894020000000,109,0x00,0x66
3.661906060000000,109,0x00,0x61
3.661918080000000,109,0x00,0x60
3.661930120000000,109,0x00,0x62
3.661942160000000,109,0x00,0x64
3.661954180000000,109,0x00,0x65
3.661966220000000,109,0x00,0x67
3.661978260000000,109,0x00,0x69
3.661990280000000,109,0x00,0x6A
3.662002320000000,109,0x00,0x6A
3.662014340000000,109,0x00,0x6F
3.662029580000000,109,0x00,0x73
3.662041620000000,109,0x00,0x72
3.662053640000000,109,0x00,0x6C
3.662065680000000,109,0x00,0x67
3.662077700000000,109,0x00,0x66
3.662089740000000,109,0x00,0x69
3.662101780000000,109,0x00,0x6C
3.662113800000000,109,0x00,0x6E
3.662125840000000,109,0x00,0x71
3.662137860000000,109,0x00,0x6F
3.662149900000000,109,0x00,0x6F
3.662161920000000,109,0x00,0x71
3.662173960000000,109,0x00,0x77
3.662185980000000,109,0x00,0x7B
3.662198020000000,109,0x00,0x7D
3.662210040000000,109,0x00,0x7C
3.662222080000000,109,0x00,0x79
3.662234100000000,109,0x00,0x70
3.662246140000000,109,0x00,0x68
3.662258160000000,109,0x00,0x5E
3.662270200000000,109,0x00,0x5B
3.662282220000000,109,0x00,0x5A
3.662294240000000,109,0x00,0x56
3.662306280000000,109,0x00,0x57
3.662318320000000,109,0x00,0x5B
3.662330340000000,109,0x00,0x62
3.662342360000000,109,0x00,0x63
3.662354400000000,109,0x00,0x63
3.662366440000000,109,0x00,0x65
3.662378460000000,109,0x00,0x69
3.662390480000000,109,0x00,0x6D
3.662402520000000,109,0x00,0x72
3.662414540000000,109,0x00,0x76
3.662426580000000,109,0x00,0x78
3.662438600000000,109,0x00,0x7C
3.662450640000000,109,0x00,0x82
3.662462660000000,109,0x00,0x86
3.662474700000000,109,0x00,0x8F
3.662486740000000,109,0x00,0x9B
3.662498760000000,109,0x00,0xAA
3.662510780000000,109,0x00,0xB8
3.662522820000000,109,0x00,0xC6
3.662534860000000,109,0x00,0xCF
3.662546880000000,109,0x00,0xD6
3.662558920000000,109,0x00,0xDC
3.662570940000000,109,0x00,0xE3
3.662582980000000,109,0x00,0xE6
3.662595020000000,109,0x00,0xDA
3.662607040000000,109,0x00,0xD5
3.662619080000000,109,0x00,0xCF
3.662631120000000,109,0x00,0xC9
3.662643140000000,109,0x00,0xC3
3.662655180000000,109,0x00,0xB8
3.662667220000000,109,0x00,0xAD
3.662679240000000,109,0x00,0x9E
3.662691280000000,109,0x00,0x8F
3.662703320000000,109,0x00,0x82
3.662715340000000,109,0x00,0x76
3.662727380000000,109,0x00,0x70
3.662739400000000,109,0x00,0x6D
3.662751440000000,109,0x00,0x6B
3.662763480000000,109,0x00,0x6A
3.662775500000000,109,0x00,0x64
3.662787540000000,109,0x00,0x63
3.662799560000000,109,0x00,0x62
3.662811600000000,109,0x00,0x60
3.662823640000000,109,0x00,0x5E
3.662835660000000,109,0x00,0x5D
3.662847700000000,109,0x00,0x61
3.662859720000000,109,0x00,0x61
3.662871760000000,109,0x00,0x5F
3.662883800000000,109,0x00,0x5D
3.662895820000000,109,0x00,0x5D
3.662907860000000,109,0x00,0x5B
3.662919880000000,109,0x00,0x5A
3.662931920000000,109,0x00,0x5C
3.662943940000000,109,0x00,0x60
3.662955980000000,109,0x00,0x62
3.662968000000000,109,0x00,0x64
3.662980040000000,109,0x00,0x6A
3.662992080000000,109,0x00,0x72
3.663004100000000,109,0x00,0x77
3.663016140000000,109,0x00,0x79
3.663028160000000,109,0x00,0x78
3.663045580000000,109,0x00,0x7B
3.663057600000000,109,0x00,0x7E
3.663069640000000,109,0x00,0x7F
3.663081660000000,109,0x00,0x84
3.663093700000000,109,0x00,0x86
3.663105740000000,109,0x00,0x83
3.663117760000000,109,0x00,0x7F
3.663129800000000,109,0x00,0x7A
3.663141820000000,109,0x00,0x78
3.663153860000000,109,0x00,0x77
3.663165880000000,109,0x00,0x7B
3.663177920000000,109,0x00,0x7F
3.663189940000000,109,0x00,0x80
3.663201980000000,109,0x00,0x7D
3.663214020000000,109,0x00,0x79
3.663226040000000,109,0x00,0x7A
3.663238080000000,109,0x00,0x81
3.663250100000000,109,0x00,0x86
3.663262140000000,109,0x00,0x85
3.663274180000000,109,0x00,0x82
3.663286200000000,109,0x00,0x7A
3.663298240000000,109,0x00,0x77
3.663310260000000,109,0x00,0x77
3.663322300000000,109,0x00,0x77
3.663334320000000,109,0x00,0x73
3.663346360000000,109,0x00,0x73
3.663358400000000,109,0x00,0x74
3.663370420000000,109,0x00,0x78
3.663382460000000,109,0x00,0x79
3.663394480000000,109,0x00,0x74
3.663406520000000,109,0x00,0x6D
3.663418560000000,109,0x00,0x65
3.663430580000000,109,0x00,0x61
3.663442620000000,109,0x00,0x61
3.663454640000000,109,0x00,0x5C
3.663466680000000,109,0x00,0x5A
3.663478700000000,109,0x00,0x5D
3.663490740000000,109,0x00,0x5C
3.663502760000000,109,0x00,0x59
3.663514800000000,109,0x00,0x57
3.663526840000000,109,0x00,0x57
3.663538880000000,109,0x00,0x58
3.663550900000000,109,0x00,0x57
3.663562940000000,109,0x00,0x5B
3.663574960000000,109,0x00,0x5D
3.663587000000000,109,0x00,0x5A
3.663599040000000,109,0x00,0x59
3.663611080000000,109,0x00,0x57
3.663623100000000,109,0x00,0x5B
3.663635140000000,109,0x00,0x5B
3.663647180000000,109,0x00,0x5B
3.663659200000000,109,0x00,0x5D
3.663671240000000,109,0x00,0x65
3.663683260000000,109,0x00,0x6C
3.663695300000000,109,0x00,0x71
3.663707340000000,109,0x00,0x76
3.663719360000000,109,0x00,0x7E
3.663731400000000,109,0x00,0x86
3.663743440000000,109,0x00,0x8D
3.663755460000000,109,0x00,0x94
3.663767500000000,109,0x00,0x96
3.663779540000000,109,0x00,0x99
3.663791560000000,109,0x00,0x97
3.663803600000000,109,0x00,0x91
3.663815620000000,109,0x00,0x83
3.663827660000000,109,0x00,0x73
3.663839700000000,109,0x00,0x66
3.663851720000000,109,0x00,0x5F
3.663863760000000,109,0x00,0x5B
3.663875800000000,109,0x00,0x59
3.663887820000000,109,0x00,0x57
3.663899860000000,109,0x00,0x59
3.663911900000000,109,0x00,0x59
3.663923920000000,109,0x00,0x58
3.663935960000000,109,0x00,0x56
3.663948000000000,109,0x00,0x56
3.663960020000000,109,0x00,0x5B
3.663972060000000,109,0x00,0x60
3.663984080000000,109,0x00,0x64
3.663996120000000,109,0x00,0x6B
3.664008160000000,109,0x00,0x73
3.664020180000000,109,0x00,0x77
3.664032220000000,109,0x00,0x75
3.664044240000000,109,0x00,0x77
3.664061380000000,109,0x00,0x7E
3.664073400000000,109,0x00,0x81
3.664085440000000,109,0x00,0x81
3.664097460000000,109,0x00,0x7E
3.664109500000000,109,0x00,0x78
3.664121540000000,109,0x00,0x73
3.664133560000000,109,0x00,0x73
3.664145580000000,109,0x00,0x77
3.664157620000000,109,0x00,0x7A
3.664169640000000,109,0x00,0x77
3.664181680000000,109,0x00,0x71
3.664193720000000,109,0x00,0x70
3.664205740000000,109,0x00,0x6E
3.664217780000000,109,0x00,0x6B
3.664229800000000,109,0x00,0x62
3.664241840000000,109,0x00,0x5F
3.664253860000000,109,0x00,0x63
3.664265900000000,109,0x00,0x65
3.664277940000000,109,0x00,0x66
3.664289960000000,109,0x00,0x69
3.664302000000000,109,0x00,0x6B
3.664314020000000,109,0x00,0x6E
3.664326060000000,109,0x00,0x6C
3.664338100000000,109,0x00,0x6D
3.664350120000000,109,0x00,0x71
3.664362160000000,109,0x00,0x6F
3.664374180000000,109,0x00,0x6A
3.664386220000000,109,0x00,0x65
3.664398260000000,109,0x00,0x64
3.664410280000000,109,0x00,0x65
3.664422320000000,109,0x00,0x62
3.664434360000000,109,0x00,0x60
3.664446380000000,109,0x00,0x62
3.664458420000000,109,0x00,0x63
3.664470460000000,109,0x00,0x65
3.664482480000000,109,0x00,0x69
3.664494520000000,109,0x00,0x70
3.664506560000000,109,0x00,0x7C
3.664518580000000,109,0x00,0x7E
3.664530620000000,109,0x00,0x7F
3.664542640000000,109,0x00,0x7E
3.664554680000000,109,0x00,0x7A
3.664566700000000,109,0x00,0x72
3.664578740000000,109,0x00,0x68
3.664590780000000,109,0x00,0x65
3.664602800000000,109,0x00,0x64
3.664614840000000,109,0x00,0x5D
3.664626880000000,109,0x00,0x5C
3.664638920000000,109,0x00,0x62
3.664650940000000,109,0x00,0x65
3.664662980000000,109,0x00,0x64
3.664675000000000,109,0x00,0x64
3.664687040000000,109,0x00,0x63
3.664699080000000,109,0x00,0x64
3.664711120000000,109,0x00,0x64
3.664723140000000,109,0x00,0x68
3.664735180000000,109,0x00,0x6C
3.664747220000000,109,0x00,0x74
3.664759240000000,109,0x00,0x80
3.664771280000000,109,0x00,0x83
3.664783320000000,109,0x00,0x86
3.664795340000000,109,0x00,0x8E
3.664807380000000,109,0x00,0x97
3.664819420000000,109,0x00,0xA5
3.664831440000000,109,0x00,0xB5
3.664843480000000,109,0x00,0xC2
3.664855500000000,109,0x00,0xCA
3.664867540000000,109,0x00,0xD3
3.664879580000000,109,0x00,0xDA
3.664891600000000,109,0x00,0xE0
3.664903640000000,109,0x00,0xE4
3.664915660000000,109,0x00,0xDA
3.664927700000000,109,0x00,0xD5
3.664939740000000,109,0x00,0xD0
3.664951780000000,109,0x00,0xC9
3.664963800000000,109,0x00,0xC2
3.664975840000000,109,0x00,0xB7
3.664987860000000,109,0x00,0xA8
3.664999900000000,109,0x00,0x93
3.665011940000000,109,0x00,0x7D
3.665023960000000,109,0x00,0x70
3.665036000000000,109,0x00,0x64
3.665048040000000,109,0x00,0x61
3.665065800000000,109,0x00,0x5F
3.665077840000000,109,0x00,0x60
3.665089860000000,109,0x00,0x61
3.665101900000000,109,0x00,0x5D
3.665113920000000,109,0x00,0x5E
3.665125960000000,109,0x00,0x5E
3.665138000000000,109,0x00,0x5B
3.665150020000000,109,0x00,0x5C
3.665162060000000,109,0x00,0x5E
3.665174080000000,109,0x00,0x63
3.665186120000000,109,0x00,0x64
3.665198160000000,109,0x00,0x60
3.665210180000000,109,0x00,0x61
3.665222220000000,109,0x00,0x63
3.665234260000000,109,0x00,0x62
3.665246280000000,109,0x00,0x5F
3.665258320000000,109,0x00,0x61
3.665270360000000,109,0x00,0x65
3.665282380000000,109,0x00,0x68
3.665294420000000,109,0x00,0x6C
3.665306440000000,109,0x00,0x73
3.665318480000000,109,0x00,0x7F
3.665330500000000,109,0x00,0x89
3.665342540000000,109,0x00,0x8B
3.665354560000000,109,0x00,0x8D
3.665366600000000,109,0x00,0x91
3.665378620000000,109,0x00,0x94
3.665390660000000,109,0x00,0x95
3.665402700000000,109,0x00,0x96
3.665414720000000,109,0x00,0x97
3.665426760000000,109,0x00,0x93
3.665438780000000,109,0x00,0x8F
3.665450820000000,109,0x00,0x8C
3.665462860000000,109,0x00,0x88
3.665474880000000,109,0x00,0x87
3.665486900000000,109,0x00,0x88
3.665498940000000,109,0x00,0x8B
3.665510960000000,109,0x00,0x8E
3.665522980000000,109,0x00,0x8B
3.665535020000000,109,0x00,0x89
3.665547040000000,109,0x00,0x8A
3.665559060000000,109,0x00,0x8C
3.665571100000000,109,0x00,0x90
3.665583140000000,109,0x00,0x90
3.665595160000000,109,0x00,0x8D
3.665607200000000,109,0x00,0x88
3.665619220000000,109,0x00,0x85
3.665631260000000,109,0x00,0x86
3.665643300000000,109,0x00,0x85
3.665655320000000,109,0x00,0x83
3.665667360000000,109,0x00,0x85
3.665679380000000,109,0x00,0x85
3.665691420000000,109,0x00,0x87
3.665703440000000,109,0x00,0x8C
3.665715480000000,109,0x00,0x87
3.665727520000000,109,0x00,0x80
3.665739540000000,109,0x00,0x76
3.665751580000000,109,0x00,0x72
3.665763600000000,109,0x00,0x6F
3.665775640000000,109,0x00,0x69
3.665787660000000,109,0x00,0x67
3.665799700000000,109,0x00,0x65
3.665811740000000,109,0x00,0x63
3.665823760000000,109,0x00,0x61
3.665835800000000,109,0x00,0x60
3.665847820000000,109,0x00,0x5D
3.665859860000000,109,0x00,0x5B
3.665871900000000,109,0x00,0x58
3.665883920000000,109,0x00,0x5B
3.665895960000000,109,0x00,0x5E
3.665907980000000,109,0x00,0x59
3.665920020000000,109,0x00,0x54
3.665932040000000,109,0x00,0x52
3.665944080000000,109,0x00,0x52
3.665956100000000,109,0x00,0x53
3.665968120000000,109,0x00,0x54
3.665980160000000,109,0x00,0x59
3.665992180000000,109,0x00,0x5F
3.666004220000000,109,0x00,0x60
3.666016260000000,109,0x00,0x60
3.666028280000000,109,0x00,0x63
3.666040300000000,109,0x00,0x69
3.666052340000000,109,0x00,0x74
3.666064380000000,109,0x00,0x7E
3.666083340000000,109,0x00,0x87
3.666095380000000,109,0x00,0x8E
3.666107400000000,109,0x00,0x91
3.666119440000000,109,0x00,0x94
3.666131460000000,109,0x00,0x92
3.666143500000000,109,0x00,0x8B
3.666155520000000,109,0x00,0x81
3.666167560000000,109,0x00,0x75
3.666179580000000,109,0x00,0x6C
3.666191620000000,109,0x00,0x66
3.666203640000000,109,0x00,0x60
3.666215680000000,109,0x00,0x5C
3.666227700000000,109,0x00,0x59
3.666239740000000,109,0x00,0x5C
3.666251760000000,109,0x00,0x5D
3.666263800000000,109,0x00,0x56
3.666275840000000,109,0x00,0x54
3.666287860000000,109,0x00,0x5B
3.666299900000000,109,0x00,0x5E
3.666311920000000,109,0x00,0x63
3.666323960000000,109,0x00,0x67
3.666335980000000,109,0x00,0x6D
3.666348020000000,109,0x00,0x6D
3.666360040000000,109,0x00,0x69
3.666372080000000,109,0x00,0x66
3.666384100000000,109,0x00,0x6C
3.666396120000000,109,0x00,0x71
3.666408160000000,109,0x00,0x74
3.666420180000000,109,0x00,0x7A
3.666432220000000,109,0x00,0x7D
3.666444240000000,109,0x00,0x7D
3.666456280000000,109,0x00,0x7C
3.666468300000000,109,0x00,0x7F
3.666480340000000,109,0x00,0x80
3.666492360000000,109,0x00,0x7C
3.666504400000000,109,0x00,0x7A
3.666516440000000,109,0x00,0x76
3.666528460000000,109,0x00,0x73
3.666540500000000,109,0x00,0x6D
3.666552520000000,109,0x00,0x64
3.666564560000000,109,0x00,0x61
3.666576600000000,109,0x00,0x65
3.666588620000000,109,0x00,0x68
3.666600660000000,109,0x00,0x69
3.666612700000000,109,0x00,0x6B
3.666624740000000,109,0x00,0x6E
3.666636760000000,109,0x00,0x70
3.666648800000000,109,0x00,0x6D
3.666660820000000,109,0x00,0x6A
3.666672860000000,109,0x00,0x6B
3.666684900000000,109,0x00,0x6B
3.666696920000000,109,0x00,0x6B
3.666708960000000,109,0x00,0x67
3.666721000000000,109,0x00,0x65
3.666733020000000,109,0x00,0x63
3.666745060000000,109,0x00,0x5D
3.666757100000000,109,0x00,0x57
3.666769120000000,109,0x00,0x59
3.666781160000000,109,0x00,0x5A
3.666793180000000,109,0x00,0x5C
3.666805220000000,109,0x00,0x61
3.666817260000000,109,0x00,0x6A
3.666829280000000,109,0x00,0x73
3.666841320000000,109,0x00,0x74
3.666853340000000,109,0x00,0x75
3.666865380000000,109,0x00,0x78
3.666877400000000,109,0x00,0x79
3.666889440000000,109,0x00,0x76
3.666901480000000,109,0x00,0x74
3.666913500000000,109,0x00,0x74
3.666925520000000,109,0x00,0x72
3.666937560000000,109,0x00,0x6C
3.666949600000000,109,0x00,0x68
3.666961640000000,109,0x00,0x6A
3.666973660000000,109,0x00,0x69
3.666985680000000,109,0x00,0x65
3.666997720000000,109,0x00,0x62
3.667009760000000,109,0x00,0x62
3.667021780000000,109,0x00,0x64
3.667033820000000,109,0x00,0x61
3.667045860000000,109,0x00,0x5F
3.667057880000000,109,0x00,0x65
3.667069920000000,109,0x00,0x6D
3.667081940000000,109,0x00,0x7A
3.667098780000000,109,0x00,0x83
3.667110820000000,109,0x00,0x87
3.667122860000000,109,0x00,0x8F
3.667134880000000,109,0x00,0x99
3.667146900000000,109,0x00,0xA4
3.667158940000000,109,0x00,0xB1
3.667170980000000,109,0x00,0xBC
3.667183000000000,109,0x00,0xC6
3.667195040000000,109,0x00,0xCF
3.667207060000000,109,0x00,0xD7
3.667219100000000,109,0x00,0xDD
3.667231140000000,109,0x00,0xE2
3.667243160000000,109,0x00,0xDA
3.667255200000000,109,0x00,0xD4
3.667267240000000,109,0x00,0xCE
3.667279260000000,109,0x00,0xC7
3.667291300000000,109,0x00,0xBE
3.667303320000000,109,0x00,0xB2
3.667315360000000,109,0x00,0xA0
3.667327400000000,109,0x00,0x87
3.667339420000000,109,0x00,0x71
3.667351460000000,109,0x00,0x63
3.667363500000000,109,0x00,0x5C
3.667375520000000,109,0x00,0x59
3.667387560000000,109,0x00,0x5A
3.667399600000000,109,0x00,0x5F
3.667411620000000,109,0x00,0x60
3.667423660000000,109,0x00,0x5F
3.667435680000000,109,0x00,0x60
3.667447720000000,109,0x00,0x61
3.667459760000000,109,0x00,0x63
3.667471780000000,109,0x00,0x64
3.667483820000000,109,0x00,0x64
3.667495840000000,109,0x00,0x68
3.667507880000000,109,0x00,0x6A
3.667519920000000,109,0x00,0x67
3.667531940000000,109,0x00,0x69
3.667543980000000,109,0x00,0x6F
3.667556000000000,109,0x00,0x70
3.667568040000000,109,0x00,0x70
3.667580080000000,109,0x00,0x6F
3.667592100000000,109,0x00,0x71
3.667604140000000,109,0x00,0x75
3.667616160000000,109,0x00,0x79
3.667628200000000,109,0x00,0x81
3.667640220000000,109,0x00,0x8C
3.667652260000000,109,0x00,0x95
3.667664280000000,109,0x00,0x99
3.667676320000000,109,0x00,0x9C
3.667688360000000,109,0x00,0x9F
3.667700380000000,109,0x00,0xA1
3.667712420000000,109,0x00,0x9F
3.667724440000000,109,0x00,0x9E
3.667736480000000,109,0x00,0x9D
3.667748500000000,109,0x00,0x99
3.667760540000000,109,0x00,0x96
3.667772560000000,109,0x00,0x91
3.667784600000000,109,0x00,0x90
3.667796620000000,109,0x00,0x8E
3.667808660000000,109,0x00,0x8D
3.667820700000000,109,0x00,0x8F
3.667832720000000,109,0x00,0x8F
3.667844760000000,109,0x00,0x8E
3.667856780000000,109,0x00,0x8D
3.667868820000000,109,0x00,0x8C
3.667880860000000,109,0x00,0x8C
3.667892880000000,109,0x00,0x8D
3.667904920000000,109,0x00,0x8C
3.667916940000000,109,0x00,0x89
3.667928980000000,109,0x00,0x87
3.667941020000000,109,0x00,0x85
3.667953060000000,109,0x00,0x84
3.667965080000000,109,0x00,0x86
3.667977120000000,109,0x00,0x89
3.667989160000000,109,0x00,0x8C
3.668001180000000,109,0x00,0x8D
3.668013220000000,109,0x00,0x90
3.668025260000000,109,0x00,0x94
3.668037280000000,109,0x00,0x91
3.668049320000000,109,0x00,0x8D
3.668061360000000,109,0x00,0x86
3.668073400000000,109,0x00,0x83
3.668085420000000,109,0x00,0x81
3.668100880000000,109,0x00,0x7A
3.668112900000000,109,0x00,0x78
3.668124940000000,109,0x00,0x73
3.668136960000000,109,0x00,0x70
3.668149000000000,109,0x00,0x6D
3.668161040000000,109,0x00,0x6D
3.668173060000000,109,0x00,0x68
3.668185100000000,109,0x00,0x63
3.668197140000000,109,0x00,0x5E
3.668209160000000,109,0x00,0x61
3.668221200000000,109,0x00,0x64
3.668233220000000,109,0x00,0x5E
3.668245260000000,109,0x00,0x57
3.668257300000000,109,0x00,0x54
3.668269320000000,109,0x00,0x52
3.668281360000000,109,0x00,0x52
3.668293400000000,109,0x00,0x54
3.668305420000000,109,0x00,0x59
3.668317460000000,109,0x00,0x5C
3.668329500000000,109,0x00,0x5E
3.668341520000000,109,0x00,0x5A
3.668353560000000,109,0x00,0x5D
3.668365600000000,109,0x00,0x5E
3.668377620000000,109,0x00,0x64
3.668389660000000,109,0x00,0x6D
3.668401700000000,109,0x00,0x73
3.668413740000000,109,0x00,0x7A
3.668425760000000,109,0x00,0x80
3.668437800000000,109,0x00,0x88
3.668449840000000,109,0x00,0x8C
3.668461860000000,109,0x00,0x8C
3.668473900000000,109,0x00,0x87
3.668485940000000,109,0x00,0x81
3.668497960000000,109,0x00,0x7A
3.668510000000000,109,0x00,0x74
3.668522020000000,109,0x00,0x6C
3.668534060000000,109,0x00,0x62
3.668546080000000,109,0x00,0x5E
3.668558120000000,109,0x00,0x5E
3.668570140000000,109,0x00,0x5F
3.668582180000000,109,0x00,0x5C
3.668594220000000,109,0x00,0x5A
3.668606240000000,109,0x00,0x5C
3.668618280000000,109,0x00,0x5F
3.668630320000000,109,0x00,0x63
3.668642340000000,109,0x00,0x64
3.668654380000000,109,0x00,0x67
3.668666400000000,109,0x00,0x65
3.668678440000000,109,0x00,0x60
3.668690480000000,109,0x00,0x5C
3.668702500000000,109,0x00,0x5C
3.668714540000000,109,0x00,0x60
3.668726560000000,109,0x00,0x64
3.668738600000000,109,0x00,0x6F
3.668750620000000,109,0x00,0x7A
3.668762660000000,109,0x00,0x80
3.668774680000000,109,0x00,0x80
3.668786720000000,109,0x00,0x80
3.668798760000000,109,0x00,0x80
3.668810780000000,109,0x00,0x7D
3.668822820000000,109,0x00,0x7D
3.668834860000000,109,0x00,0x7E
3.668846880000000,109,0x00,0x7A
3.668858920000000,109,0x00,0x74
3.668870940000000,109,0x00,0x68
3.668882980000000,109,0x00,0x68
3.668895020000000,109,0x00,0x6C
3.668907040000000,109,0x00,0x6D
3.668919080000000,109,0x00,0x6D
3.668931100000000,109,0x00,0x6F
3.668943140000000,109,0x00,0x71
3.668955180000000,109,0x00,0x70
3.668967220000000,109,0x00,0x69
3.668979240000000,109,0x00,0x67
3.668991280000000,109,0x00,0x68
3.669003300000000,109,0x00,0x68
3.669015340000000,109,0x00,0x6D
3.669027380000000,109,0x00,0x6B
3.669039400000000,109,0x00,0x69
3.669051440000000,109,0x00,0x65
3.669063460000000,109,0x00,0x5B
3.669075500000000,109,0x00,0x52
3.669087540000000,109,0x00,0x52
3.669099560000000,109,0x00,0x53
3.669116460000000,109,0x00,0x56
3.669128500000000,109,0x00,0x5D
3.669140520000000,109,0x00,0x64
3.669152560000000,109,0x00,0x6A
3.669164600000000,109,0x00,0x68
3.669176620000000,109,0x00,0x69
3.669188660000000,109,0x00,0x6E
3.669200680000000,109,0x00,0x72
3.669212720000000,109,0x00,0x73
3.669224760000000,109,0x00,0x77
3.669236780000000,109,0x00,0x7B
3.669248820000000,109,0x00,0x7D
3.669260840000000,109,0x00,0x7A
3.669272880000000,109,0x00,0x77
3.669284920000000,109,0x00,0x76
3.669296940000000,109,0x00,0x6F
3.669308980000000,109,0x00,0x6A
3.669321000000000,109,0x00,0x64
3.669333040000000,109,0x00,0x67
3.669345080000000,109,0x00,0x66
3.669357100000000,109,0x00,0x64
3.669369140000000,109,0x00,0x5D
3.669381160000000,109,0x00,0x60
3.669393200000000,109,0x00,0x64
3.669405220000000,109,0x00,0x71
3.669417260000000,109,0x00,0x7A
3.669429300000000,109,0x00,0x84
3.669441320000000,109,0x00,0x8E
3.669453360000000,109,0x00,0x98
3.669465380000000,109,0x00,0xA2
3.669477420000000,109,0x00,0xAE
3.669489460000000,109,0x00,0xB8
3.669501480000000,109,0x00,0xC3
3.669513520000000,109,0x00,0xCB
3.669525540000000,109,0x00,0xD3
3.669537580000000,109,0x00,0xDA
3.669549620000000,109,0x00,0xE1
3.669561660000000,109,0x00,0xD9
3.669573680000000,109,0x00,0xD3
3.669585720000000,109,0x00,0xCD
3.669597740000000,109,0x00,0xC3
3.669609780000000,109,0x00,0xBB
3.669621820000000,109,0x00,0xAD
3.669633840000000,109,0x00,0x9B
3.669645880000000,109,0x00,0x83
3.669657900000000,109,0x00,0x6A
3.669669940000000,109,0x00,0x60
3.669681980000000,109,0x00,0x58
3.669694000000000,109,0x00,0x57
3.669706040000000,109,0x00,0x5A
3.669718080000000,109,0x00,0x5D
3.669730100000000,109,0x00,0x63
3.669742140000000,109,0x00,0x64
3.669754160000000,109,0x00,0x6A
3.669766200000000,109,0x00,0x70
3.669778240000000,109,0x00,0x74
3.669790260000000,109,0x00,0x73
3.669802300000000,109,0x00,0x74
3.669814320000000,109,0x00,0x76
3.669826360000000,109,0x00,0x76
3.669838400000000,109,0x00,0x75
3.669850420000000,109,0x00,0x77
3.669862460000000,109,0x00,0x7E
3.669874500000000,109,0x00,0x81
3.669886520000000,109,0x00,0x82
3.669898560000000,109,0x00,0x80
3.669910580000000,109,0x00,0x81
3.669922620000000,109,0x00,0x83
3.669934660000000,109,0x00,0x86
3.669946680000000,109,0x00,0x8C
3.669958720000000,109,0x00,0x96
3.669970740000000,109,0x00,0x9B
3.669982780000000,109,0x00,0x9F
3.669994820000000,109,0x00,0xA1
3.670006840000000,109,0x00,0xA1
3.670018880000000,109,0x00,0xA1
3.670030920000000,109,0x00,0x9D
3.670042940000000,109,0x00,0x9B
3.670054980000000,109,0x00,0x97
3.670067020000000,109,0x00,0x93
3.670079060000000,109,0x00,0x8D
3.670091080000000,109,0x00,0x8A
3.670103120000000,109,0x00,0x87
3.670115140000000,109,0x00,0x85
3.670132060000000,109,0x00,0x83
3.670144100000000,109,0x00,0x82
3.670156140000000,109,0x00,0x82
3.670168180000000,109,0x00,0x85
3.670180200000000,109,0x00,0x85
3.670192240000000,109,0x00,0x83
3.670204260000000,109,0x00,0x7F
3.670216300000000,109,0x00,0x7C
3.670228340000000,109,0x00,0x7A
3.670240360000000,109,0x00,0x75
3.670252400000000,109,0x00,0x74
3.670264440000000,109,0x00,0x72
3.670276460000000,109,0x00,0x73
3.670288500000000,109,0x00,0x76
3.670300540000000,109,0x00,0x7B
3.670312560000000,109,0x00,0x80
3.670324600000000,109,0x00,0x86
3.670336620000000,109,0x00,0x89
3.670348660000000,109,0x00,0x8C
3.670360700000000,109,0x00,0x8D
3.670372720000000,109,0x00,0x8C
3.670384760000000,109,0x00,0x8A
3.670396800000000,109,0x00,0x8A
3.670408820000000,109,0x00,0x8C
3.670420860000000,109,0x00,0x89
3.670432880000000,109,0x00,0x89
3.670444920000000,109,0x00,0x86
3.670456960000000,109,0x00,0x82
3.670468980000000,109,0x00,0x80
3.670481020000000,109,0x00,0x7C
3.670493040000000,109,0x00,0x79
3.670505080000000,109,0x00,0x74
3.670517120000000,109,0x00,0x6F
3.670529140000000,109,0x00,0x74
3.670541180000000,109,0x00,0x76
3.670553220000000,109,0x00,0x72
3.670565240000000,109,0x00,0x68
3.670577280000000,109,0x00,0x60
3.670589320000000,109,0x00,0x5C
3.670601340000000,109,0x00,0x59
3.670613380000000,109,0x00,0x57
3.670625420000000,109,0x00,0x57
3.670637460000000,109,0x00,0x5B
3.670649480000000,109,0x00,0x5A
3.670661520000000,109,0x00,0x58
3.670673540000000,109,0x00,0x59
3.670685580000000,109,0x00,0x57
3.670697620000000,109,0x00,0x5A
3.670709640000000,109,0x00,0x5C
3.670721680000000,109,0x00,0x60
3.670733700000000,109,0x00,0x67
3.670745740000000,109,0x00,0x6B
3.670757780000000,109,0x00,0x72
3.670769800000000,109,0x00,0x7D
3.670781840000000,109,0x00,0x82
3.670793860000000,109,0x00,0x86
3.670805900000000,109,0x00,0x85
3.670817940000000,109,0x00,0x84
3.670829960000000,109,0x00,0x81
3.670842000000000,109,0x00,0x76
3.670854020000000,109,0x00,0x6E
3.670866060000000,109,0x00,0x68
3.670878100000000,109,0x00,0x65
3.670890120000000,109,0x00,0x67
3.670902160000000,109,0x00,0x64
3.670914180000000,109,0x00,0x60
3.670926220000000,109,0x00,0x61
3.670938260000000,109,0x00,0x61
3.670950280000000,109,0x00,0x62
3.670962320000000,109,0x00,0x63
3.670974360000000,109,0x00,0x61
3.670986380000000,109,0x00,0x5F
3.670998420000000,109,0x00,0x58
3.671010440000000,109,0x00,0x55
3.671022480000000,109,0x00,0x55
3.671034520000000,109,0x00,0x55
3.671046540000000,109,0x00,0x5A
3.671058580000000,109,0x00,0x65
3.671070600000000,109,0x00,0x6F
3.671082640000000,109,0x00,0x79
3.671094680000000,109,0x00,0x7C
3.671106700000000,109,0x00,0x7B
3.671118740000000,109,0x00,0x7A
3.671136340000000,109,0x00,0x79
3.671148360000000,109,0x00,0x7C
3.671160400000000,109,0x00,0x80
3.671172420000000,109,0x00,0x7F
3.671184460000000,109,0x00,0x7B
3.671196500000000,109,0x00,0x71
3.671208520000000,109,0x00,0x6F
3.671220560000000,109,0x00,0x71
3.671232580000000,109,0x00,0x75
3.671244620000000,109,0x00,0x72
3.671256640000000,109,0x00,0x72
3.671268680000000,109,0x00,0x73
3.671280720000000,109,0x00,0x6F
3.671292740000000,109,0x00,0x68
3.671304780000000,109,0x00,0x64
3.671316820000000,109,0x00,0x66
3.671328840000000,109,0x00,0x68
3.671340880000000,109,0x00,0x6F
3.671352900000000,109,0x00,0x6F
3.671364920000000,109,0x00,0x6D
3.671376960000000,109,0x00,0x66
3.671388980000000,109,0x00,0x59
3.671401020000000,109,0x00,0x50
3.671413040000000,109,0x00,0x50
3.671425080000000,109,0x00,0x50
3.671437100000000,109,0x00,0x53
3.671449140000000,109,0x00,0x5B
3.671461180000000,109,0x00,0x62
3.671473200000000,109,0x00,0x65
3.671485240000000,109,0x00,0x63
3.671497260000000,109,0x00,0x61
3.671509300000000,109,0x00,0x65
3.671521320000000,109,0x00,0x67
3.671533360000000,109,0x00,0x69
3.671545400000000,109,0x00,0x6F
3.671557420000000,109,0x00,0x76
3.671569460000000,109,0x00,0x7C
3.671581480000000,109,0x00,0x7C
3.671593520000000,109,0x00,0x7E
3.671605560000000,109,0x00,0x7F
3.671617580000000,109,0x00,0x7B
3.671629620000000,109,0x00,0x72
3.671641640000000,109,0x00,0x6D
3.671653680000000,109,0x00,0x6C
3.671665720000000,109,0x00,0x6E
3.671677740000000,109,0x00,0x66
3.671689780000000,109,0x00,0x5D
3.671701800000000,109,0x00,0x5B
3.671713840000000,109,0x00,0x5A
3.671725880000000,109,0x00,0x64
3.671737900000000,109,0x00,0x6E
3.671749940000000,109,0x00,0x7A
3.671761960000000,109,0x00,0x88
3.671774000000000,109,0x00,0x95
3.671786040000000,109,0x00,0x9E
3.671798060000000,109,0x00,0xAB
3.671810100000000,109,0x00,0xB5
3.671822140000000,109,0x00,0xBE
3.671834160000000,109,0x00,0xC8
3.671846200000000,109,0x00,0xD1
3.671858220000000,109,0x00,0xD8
3.671870260000000,109,0x00,0xDF
3.671882300000000,109,0x00,0xD7
3.671894320000000,109,0x00,0xD1
3.671906360000000,109,0x00,0xCB
3.671918380000000,109,0x00,0xC1
3.671930420000000,109,0x00,0xB8
3.671942460000000,109,0x00,0xAD
3.671954480000000,109,0x00,0x9B
3.671966520000000,109,0x00,0x85
3.671978540000000,109,0x00,0x72
3.671990580000000,109,0x00,0x66
3.672002600000000,109,0x00,0x5E
3.672014640000000,109,0x00,0x5D
3.672026680000000,109,0x00,0x60
3.672038700000000,109,0x00,0x65
3.672050740000000,109,0x00,0x6D
3.672062760000000,109,0x00,0x6F
3.672074800000000,109,0x00,0x77
3.672086820000000,109,0x00,0x83
3.672098860000000,109,0x00,0x86
3.672110880000000,109,0x00,0x88
3.672122920000000,109,0x00,0x8A
3.672134960000000,109,0x00,0x89
3.672153940000000,109,0x00,0x88
3.672165960000000,109,0x00,0x86
3.672178000000000,109,0x00,0x88
3.672190040000000,109,0x00,0x8C
3.672202060000000,109,0x00,0x8F
3.672214100000000,109,0x00,0x8E
3.672226140000000,109,0x00,0x8C
3.672238160000000,109,0x00,0x8B
3.672250200000000,109,0x00,0x8A
3.672262220000000,109,0x00,0x8B
3.672274260000000,109,0x00,0x8F
3.672286300000000,109,0x00,0x96
3.672298320000000,109,0x00,0x99
3.672310360000000,109,0x00,0x99
3.672322380000000,109,0x00,0x98
3.672334420000000,109,0x00,0x98
3.672346460000000,109,0x00,0x97
3.672358480000000,109,0x00,0x90
3.672370520000000,109,0x00,0x8E
3.672382540000000,109,0x00,0x8C
3.672394580000000,109,0x00,0x84
3.672406620000000,109,0x00,0x7F
3.672418640000000,109,0x00,0x7B
3.672430680000000,109,0x00,0x77
3.672442700000000,109,0x00,0x74
3.672454740000000,109,0x00,0x71
3.672466780000000,109,0x00,0x6E
3.672478800000000,109,0x00,0x70
3.672490840000000,109,0x00,0x73
3.672502860000000,109,0x00,0x76
3.672514900000000,109,0x00,0x72
3.672526940000000,109,0x00,0x6D
3.672538980000000,109,0x00,0x68
3.672551000000000,109,0x00,0x65
3.672563040000000,109,0x00,0x61
3.672575080000000,109,0x00,0x61
3.672587100000000,109,0x00,0x5F
3.672599140000000,109,0x00,0x5C
3.672611180000000,109,0x00,0x5F
3.672623200000000,109,0x00,0x63
3.672635240000000,109,0x00,0x6A
3.672647260000000,109,0x00,0x6E
3.672659300000000,109,0x00,0x75
3.672671340000000,109,0x00,0x7E
3.672683360000000,109,0x00,0x80
3.672695400000000,109,0x00,0x81
3.672707440000000,109,0x00,0x7F
3.672719460000000,109,0x00,0x83
3.672731500000000,109,0x00,0x87
3.672743540000000,109,0x00,0x8A
3.672755560000000,109,0x00,0x8B
3.672767600000000,109,0x00,0x8C
3.672779640000000,109,0x00,0x8E
3.672791680000000,109,0x00,0x8D
3.672803720000000,109,0x00,0x8B
3.672815740000000,109,0x00,0x89
3.672827780000000,109,0x00,0x86
3.672839820000000,109,0x00,0x85
3.672851840000000,109,0x00,0x89
3.672863880000000,109,0x00,0x8B
3.672875920000000,109,0x00,0x87
3.672887940000000,109,0x00,0x80
3.672899980000000,109,0x00,0x79
3.672912020000000,109,0x00,0x71
3.672924040000000,109,0x00,0x6B
3.672936080000000,109,0x00,0x62
3.672948120000000,109,0x00,0x60
3.672960140000000,109,0x00,0x60
3.672972180000000,109,0x00,0x5E
3.672984220000000,109,0x00,0x5A
3.672996240000000,109,0x00,0x59
3.673008280000000,109,0x00,0x58
3.673020320000000,109,0x00,0x57
3.673032340000000,109,0x00,0x55
3.673044380000000,109,0x00,0x55
3.673056420000000,109,0x00,0x59
3.673068440000000,109,0x00,0x5B
3.673080480000000,109,0x00,0x60
3.673092520000000,109,0x00,0x69
3.673104540000000,109,0x00,0x73
3.673116580000000,109,0x00,0x79
3.673128620000000,109,0x00,0x7C
3.673140660000000,109,0x00,0x7F
3.673157580000000,109,0x00,0x84
3.673169600000000,109,0x00,0x82
3.673181640000000,109,0x00,0x7B
3.673193680000000,109,0x00,0x76
3.673205720000000,109,0x00,0x73
3.673217740000000,109,0x00,0x72
3.673229780000000,109,0x00,0x6F
3.673241820000000,109,0x00,0x6D
3.673253840000000,109,0x00,0x6B
3.673265880000000,109,0x00,0x67
3.673277920000000,109,0x00,0x64
3.673289940000000,109,0x00,0x61
3.673301980000000,109,0x00,0x60
3.673314020000000,109,0x00,0x5C
3.673326040000000,109,0x00,0x56
3.673338080000000,109,0x00,0x55
3.673350120000000,109,0x00,0x54
3.673362160000000,109,0x00,0x54
3.673374180000000,109,0x00,0x58
3.673386220000000,109,0x00,0x5E
3.673398240000000,109,0x00,0x65
3.673410280000000,109,0x00,0x6E
3.673422320000000,109,0x00,0x70
3.673434340000000,109,0x00,0x70
3.673446380000000,109,0x00,0x70
3.673458420000000,109,0x00,0x71
3.673470440000000,109,0x00,0x76
3.673482480000000,109,0x00,0x7B
3.673494520000000,109,0x00,0x7F
3.673506540000000,109,0x00,0x7E
3.673518580000000,109,0x00,0x78
3.673530600000000,109,0x00,0x77
3.673542640000000,109,0x00,0x7A
3.673554680000000,109,0x00,0x79
3.673566700000000,109,0x00,0x75
3.673578740000000,109,0x00,0x75
3.673590780000000,109,0x00,0x74
3.673602800000000,109,0x00,0x70
3.673614840000000,109,0x00,0x69
3.673626880000000,109,0x00,0x67
3.673638900000000,109,0x00,0x6C
3.673650940000000,109,0x00,0x6F
3.673662980000000,109,0x00,0x74
3.673675000000000,109,0x00,0x75
3.673687040000000,109,0x00,0x70
3.673699080000000,109,0x00,0x65
3.673711100000000,109,0x00,0x58
3.673723140000000,109,0x00,0x50
3.673735180000000,109,0x00,0x4E
3.673747200000000,109,0x00,0x50
3.673759240000000,109,0x00,0x54
3.673771280000000,109,0x00,0x5B
3.673783300000000,109,0x00,0x5F
3.673795340000000,109,0x00,0x61
3.673807380000000,109,0x00,0x5F
3.673819400000000,109,0x00,0x5F
3.673831440000000,109,0x00,0x60
3.673843480000000,109,0x00,0x60
3.673855500000000,109,0x00,0x60
3.673867540000000,109,0x00,0x65
3.673879580000000,109,0x00,0x69
3.673891600000000,109,0x00,0x6E
3.673903640000000,109,0x00,0x70
3.673915680000000,109,0x00,0x76
3.673927700000000,109,0x00,0x7C
3.673939740000000,109,0x00,0x7F
3.673951760000000,109,0x00,0x7A
3.673963800000000,109,0x00,0x75
3.673975840000000,109,0x00,0x75
3.673987860000000,109,0x00,0x74
3.673999900000000,109,0x00,0x6C
3.674011940000000,109,0x00,0x60
3.674023960000000,109,0x00,0x59
3.674036000000000,109,0x00,0x56
3.674048040000000,109,0x00,0x5B
3.674060060000000,109,0x00,0x62
3.674072100000000,109,0x00,0x71
3.674084140000000,109,0x00,0x81
3.674096160000000,109,0x00,0x8F
3.674108200000000,109,0x00,0x99
3.674120240000000,109,0x00,0xA6
3.674132260000000,109,0x00,0xAF
3.674144300000000,109,0x00,0xB9
3.674156340000000,109,0x00,0xC3
3.674171700000000,109,0x00,0xCE
3.674183740000000,109,0x00,0xD6
3.674195760000000,109,0x00,0xDB
3.674207800000000,109,0x00,0xD7
3.674219820000000,109,0x00,0xD0
3.674231860000000,109,0x00,0xCA
3.674243900000000,109,0x00,0xC1
3.674255920000000,109,0x00,0xB9
3.674267960000000,109,0x00,0xAC
3.674280000000000,109,0x00,0x9F
3.674292020000000,109,0x00,0x8E
3.674304060000000,109,0x00,0x7E
3.674316080000000,109,0x00,0x74
3.674328120000000,109,0x00,0x6B
3.674340160000000,109,0x00,0x69
3.674352180000000,109,0x00,0x6B
3.674364220000000,109,0x00,0x72
3.674376260000000,109,0x00,0x79
3.674388280000000,109,0x00,0x7E
3.674400320000000,109,0x00,0x84
3.674412360000000,109,0x00,0x8D
3.674424380000000,109,0x00,0x94
3.674436420000000,109,0x00,0x95
3.674448440000000,109,0x00,0x96
3.674460480000000,109,0x00,0x94
3.674472520000000,109,0x00,0x92
3.674484540000000,109,0x00,0x8F
3.674496580000000,109,0x00,0x8E
3.674508600000000,109,0x00,0x8E
3.674520640000000,109,0x00,0x8F
3.674532660000000,109,0x00,0x8C
3.674544680000000,109,0x00,0x88
3.674556720000000,109,0x00,0x85
3.674568760000000,109,0x00,0x83
3.674580780000000,109,0x00,0x81
3.674592820000000,109,0x00,0x84
3.674604840000000,109,0x00,0x89
3.674616880000000,109,0x00,0x89
3.674628900000000,109,0x00,0x89
3.674640940000000,109,0x00,0x89
3.674652980000000,109,0x00,0x86
3.674665020000000,109,0x00,0x84
3.674677040000000,109,0x00,0x7F
3.674689060000000,109,0x00,0x7B
3.674701100000000,109,0x00,0x78
3.674713140000000,109,0x00,0x72
3.674725180000000,109,0x00,0x6E
3.674737200000000,109,0x00,0x6C
3.674749220000000,109,0x00,0x6B
3.674761260000000,109,0x00,0x65
3.674773300000000,109,0x00,0x62
3.674785320000000,109,0x00,0x60
3.674797360000000,109,0x00,0x63
3.674809380000000,109,0x00,0x65
3.674821420000000,109,0x00,0x66
3.674833460000000,109,0x00,0x63
3.674845480000000,109,0x00,0x60
3.674857520000000,109,0x00,0x5D
3.674869540000000,109,0x00,0x58
3.674881580000000,109,0x00,0x57
3.674893620000000,109,0x00,0x59
3.674905640000000,109,0x00,0x54
3.674917680000000,109,0x00,0x52
3.674929720000000,109,0x00,0x51
3.674941740000000,109,0x00,0x53
3.674953780000000,109,0x00,0x57
3.674965820000000,109,0x00,0x58
3.674977840000000,109,0x00,0x61
3.674989880000000,109,0x00,0x6A
3.675001920000000,109,0x00,0x6D
3.675013960000000,109,0x00,0x6F
3.675026000000000,109,0x00,0x6F
3.675038020000000,109,0x00,0x71
3.675050060000000,109,0x00,0x77
3.675062100000000,109,0x00,0x77
3.675074120000000,109,0x00,0x7C
3.675086160000000,109,0x00,0x83
3.675098200000000,109,0x00,0x89
3.675110240000000,109,0x00,0x8A
3.675122260000000,109,0x00,0x8A
3.675134300000000,109,0x00,0x88
3.675146320000000,109,0x00,0x8B
3.675158360000000,109,0x00,0x8F
3.675170400000000,109,0x00,0x96
3.675187780000000,109,0x00,0x99
3.675199820000000,109,0x00,0x99
3.675211840000000,109,0x00,0x96
3.675223880000000,109,0x00,0x92
3.675235920000000,109,0x00,0x88
3.675247940000000,109,0x00,0x80
3.675259980000000,109,0x00,0x75
3.675272020000000,109,0x00,0x71
3.675284060000000,109,0x00,0x6F
3.675296080000000,109,0x00,0x6C
3.675308120000000,109,0x00,0x66
3.675320140000000,109,0x00,0x62
3.675332180000000,109,0x00,0x5D
3.675344220000000,109,0x00,0x59
3.675356240000000,109,0x00,0x54
3.675368280000000,109,0x00,0x53
3.675380300000000,109,0x00,0x56
3.675392340000000,109,0x00,0x52
3.675404380000000,109,0x00,0x55
3.675416400000000,109,0x00,0x5B
3.675428440000000,109,0x00,0x5F
3.675440460000000,109,0x00,0x66
3.675452500000000,109,0x00,0x68
3.675464540000000,109,0x00,0x70
3.675476580000000,109,0x00,0x7C
3.675488600000000,109,0x00,0x83
3.675500640000000,109,0x00,0x84
3.675512680000000,109,0x00,0x82
3.675524700000000,109,0x00,0x82
3.675536740000000,109,0x00,0x81
3.675548780000000,109,0x00,0x7D
3.675560800000000,109,0x00,0x7A
3.675572840000000,109,0x00,0x78
3.675584880000000,109,0x00,0x73
3.675596920000000,109,0x00,0x6D
3.675608940000000,109,0x00,0x66
3.675620980000000,109,0x00,0x62
3.675633000000000,109,0x00,0x60
3.675645040000000,109,0x00,0x5B
3.675657080000000,109,0x00,0x5A
3.675669100000000,109,0x00,0x59
3.675681140000000,109,0x00,0x56
3.675693180000000,109,0x00,0x5A
3.675705200000000,109,0x00,0x5C
3.675717240000000,109,0x00,0x61
3.675729260000000,109,0x00,0x65
3.675741300000000,109,0x00,0x66
3.675753320000000,109,0x00,0x65
3.675765360000000,109,0x00,0x65
3.675777400000000,109,0x00,0x66
3.675789420000000,109,0x00,0x6A
3.675801460000000,109,0x00,0x73
3.675813480000000,109,0x00,0x77
3.675825520000000,109,0x00,0x77
3.675837540000000,109,0x00,0x77
3.675849580000000,109,0x00,0x79
3.675861620000000,109,0x00,0x7B
3.675873640000000,109,0x00,0x7A
3.675885680000000,109,0x00,0x77
3.675897700000000,109,0x00,0x78
3.675909740000000,109,0x00,0x78
3.675921780000000,109,0x00,0x73
3.675933800000000,109,0x00,0x6C
3.675945840000000,109,0x00,0x6C
3.675957880000000,109,0x00,0x72
3.675969900000000,109,0x00,0x78
3.675981940000000,109,0x00,0x7A
3.675993980000000,109,0x00,0x76
3.676006000000000,109,0x00,0x6D
3.676018040000000,109,0x00,0x62
3.676030060000000,109,0x00,0x56
3.676042100000000,109,0x00,0x4D
3.676054140000000,109,0x00,0x51
3.676066160000000,109,0x00,0x54
3.676078200000000,109,0x00,0x58
3.676090240000000,109,0x00,0x5C
3.676102260000000,109,0x00,0x60
3.676114300000000,109,0x00,0x61
3.676126320000000,109,0x00,0x5E
3.676138360000000,109,0x00,0x5C
3.676150400000000,109,0x00,0x5A
3.676162420000000,109,0x00,0x5B
3.676174460000000,109,0x00,0x5A
3.676191380000000,109,0x00,0x5B
3.676203420000000,109,0x00,0x5F
3.676215440000000,109,0x00,0x5F
3.676227480000000,109,0x00,0x5E
3.676239520000000,109,0x00,0x68
3.676251540000000,109,0x00,0x71
3.676263580000000,109,0x00,0x79
3.676275600000000,109,0x00,0x77
3.676287640000000,109,0x00,0x73
3.676299680000000,109,0x00,0x73
3.676311720000000,109,0x00,0x74
3.676323740000000,109,0x00,0x6F
3.676335760000000,109,0x00,0x63
3.676347800000000,109,0x00,0x5B
3.676359820000000,109,0x00,0x57
3.676371860000000,109,0x00,0x5A
3.676383880000000,109,0x00,0x65
3.676395920000000,109,0x00,0x71
3.676407940000000,109,0x00,0x7F
3.676419980000000,109,0x00,0x8B
3.676432000000000,109,0x00,0x93
3.676444040000000,109,0x00,0xA1
3.676456080000000,109,0x00,0xAC
3.676468100000000,109,0x00,0xB6
3.676480140000000,109,0x00,0xC1
3.676492180000000,109,0x00,0xCA
3.676504200000000,109,0x00,0xD2
3.676516240000000,109,0x00,0xDA
3.676528280000000,109,0x00,0xD5
3.676540300000000,109,0x00,0xCF
3.676552340000000,109,0x00,0xC9
3.676564380000000,109,0x00,0xC1
3.676576400000000,109,0x00,0xB9
3.676588440000000,109,0x00,0xAF
3.676600460000000,109,0x00,0xA3
3.676612500000000,109,0x00,0x97
3.676624520000000,109,0x00,0x8C
3.676636560000000,109,0x00,0x81
3.676648580000000,109,0x00,0x7B
3.676660620000000,109,0x00,0x78
3.676672660000000,109,0x00,0x7A
3.676684680000000,109,0x00,0x7F
3.676696720000000,109,0x00,0x87
3.676708760000000,109,0x00,0x89
3.676720780000000,109,0x00,0x8D
3.676732820000000,109,0x00,0x91
3.676744840000000,109,0x00,0x94
3.676756880000000,109,0x00,0x95
3.676768920000000,109,0x00,0x95
3.676780940000000,109,0x00,0x93
3.676792980000000,109,0x00,0x8F
3.676805000000000,109,0x00,0x8A
3.676817040000000,109,0x00,0x89
3.676829080000000,109,0x00,0x89
3.676841100000000,109,0x00,0x87
3.676853140000000,109,0x00,0x7F
3.676865160000000,109,0x00,0x79
3.676877200000000,109,0x00,0x72
3.676889240000000,109,0x00,0x6D
3.676901260000000,109,0x00,0x69
3.676913300000000,109,0x00,0x6D
3.676925320000000,109,0x00,0x73
3.676937360000000,109,0x00,0x72
3.676949400000000,109,0x00,0x72
3.676961420000000,109,0x00,0x73
3.676973460000000,109,0x00,0x72
3.676985480000000,109,0x00,0x71
3.676997520000000,109,0x00,0x6C
3.677009560000000,109,0x00,0x6A
3.677021580000000,109,0x00,0x6A
3.677033620000000,109,0x00,0x63
3.677045660000000,109,0x00,0x61
3.677057680000000,109,0x00,0x62
3.677069720000000,109,0x00,0x63
3.677081740000000,109,0x00,0x62
3.677093780000000,109,0x00,0x5B
3.677105820000000,109,0x00,0x5B
3.677117840000000,109,0x00,0x5D
3.677129880000000,109,0x00,0x5E
3.677141900000000,109,0x00,0x5E
3.677153940000000,109,0x00,0x5D
3.677165980000000,109,0x00,0x59
3.677178000000000,109,0x00,0x56
3.677190040000000,109,0x00,0x53
3.677207580000000,109,0x00,0x54
3.677219620000000,109,0x00,0x53
3.677231660000000,109,0x00,0x53
3.677243680000000,109,0x00,0x4F
3.677255720000000,109,0x00,0x4C
3.677267740000000,109,0x00,0x4E
3.677279780000000,109,0x00,0x4F
3.677291820000000,109,0x00,0x4F
3.677303840000000,109,0x00,0x55
3.677315880000000,109,0x00,0x5D
3.677327900000000,109,0x00,0x5F
3.677339940000000,109,0x00,0x5F
3.677351960000000,109,0x00,0x5F
3.677364000000000,109,0x00,0x61
3.677376040000000,109,0x00,0x65
3.677388060000000,109,0x00,0x62
3.677400100000000,109,0x00,0x65
3.677412120000000,109,0x00,0x6C
3.677424160000000,109,0x00,0x74
3.677436200000000,109,0x00,0x77
3.677448220000000,109,0x00,0x76
3.677460260000000,109,0x00,0x78
3.677472280000000,109,0x00,0x7F
3.677484320000000,109,0x00,0x89
3.677496340000000,109,0x00,0x93
3.677508380000000,109,0x00,0x9B
3.677520400000000,109,0x00,0x9E
3.677532440000000,109,0x00,0x9E
3.677544460000000,109,0x00,0x9C
3.677556500000000,109,0x00,0x98
3.677568520000000,109,0x00,0x90
3.677580560000000,109,0x00,0x88
3.677592580000000,109,0x00,0x83
3.677604620000000,109,0x00,0x7F
3.677616660000000,109,0x00,0x7C
3.677628700000000,109,0x00,0x78
3.677640720000000,109,0x00,0x73
3.677652760000000,109,0x00,0x6A
3.677664780000000,109,0x00,0x63
3.677676820000000,109,0x00,0x5C
3.677688860000000,109,0x00,0x59
3.677700900000000,109,0x00,0x58
3.677712920000000,109,0x00,0x54
3.677724960000000,109,0x00,0x53
3.677736980000000,109,0x00,0x55
3.677749020000000,109,0x00,0x55
3.677761060000000,109,0x00,0x57
3.677773100000000,109,0x00,0x5A
3.677785120000000,109,0x00,0x63
3.677797160000000,109,0x00,0x6D
3.677809200000000,109,0x00,0x77
3.677821220000000,109,0x00,0x7D
3.677833260000000,109,0x00,0x80
3.677845280000000,109,0x00,0x81
3.677857320000000,109,0x00,0x85
3.677869360000000,109,0x00,0x83
3.677881380000000,109,0x00,0x82
3.677893420000000,109,0x00,0x85
3.677905460000000,109,0x00,0x81
3.677917480000000,109,0x00,0x78
3.677929520000000,109,0x00,0x70
3.677941560000000,109,0x00,0x69
3.677953580000000,109,0x00,0x69
3.677965620000000,109,0x00,0x67
3.677977660000000,109,0x00,0x63
3.677989680000000,109,0x00,0x60
3.678001720000000,109,0x00,0x5B
3.678013760000000,109,0x00,0x5B
3.678025780000000,109,0x00,0x5E
3.678037820000000,109,0x00,0x5F
3.678049840000000,109,0x00,0x61
3.678061880000000,109,0x00,0x5D
3.678073920000000,109,0x00,0x5D
3.678085940000000,109,0x00,0x5C
3.678097980000000,109,0x00,0x5D
3.678110020000000,109,0x00,0x5E
3.678122040000000,109,0x00,0x66
3.678134080000000,109,0x00,0x69
3.678146120000000,109,0x00,0x6B
3.678158140000000,109,0x00,0x6D
3.678170180000000,109,0x00,0x73
3.678182220000000,109,0x00,0x78
3.678194240000000,109,0x00,0x76
3.678206280000000,109,0x00,0x76
3.678225100000000,109,0x00,0x79
3.678237120000000,109,0x00,0x79
3.678249160000000,109,0x00,0x76
3.678261180000000,109,0x00,0x71
3.678273220000000,109,0x00,0x6E
3.678285260000000,109,0x00,0x74
3.678297280000000,109,0x00,0x7A
3.678309320000000,109,0x00,0x7C
3.678321340000000,109,0x00,0x75
3.678333380000000,109,0x00,0x69
3.678345400000000,109,0x00,0x5E
3.678357440000000,109,0x00,0x53
3.678369480000000,109,0x00,0x4E
3.678381520000000,109,0x00,0x52
3.678393540000000,109,0x00,0x58
3.678405580000000,109,0x00,0x5E
3.678417620000000,109,0x00,0x64
3.678429640000000,109,0x00,0x64
3.678441680000000,109,0x00,0x63
3.678453720000000,109,0x00,0x5F
3.678465740000000,109,0x00,0x5B
3.678477780000000,109,0x00,0x5B
3.678489820000000,109,0x00,0x5B
3.678501840000000,109,0x00,0x5A
3.678513880000000,109,0x00,0x59
3.678525920000000,109,0x00,0x58
3.678537940000000,109,0x00,0x59
3.678549980000000,109,0x00,0x55
3.678562020000000,109,0x00,0x5A
3.678574040000000,109,0x00,0x67
3.678586080000000,109,0x00,0x6D
3.678598100000000,109,0x00,0x6B
3.678610140000000,109,0x00,0x68
3.678622180000000,109,0x00,0x69
3.678634200000000,109,0x00,0x6D
3.678646240000000,109,0x00,0x6D
3.678658280000000,109,0x00,0x66
3.678670300000000,109,0x00,0x5F
3.678682340000000,109,0x00,0x59
3.678694380000000,109,0x00,0x5E
3.678706400000000,109,0x00,0x69
3.678718440000000,109,0x00,0x74
3.678730460000000,109,0x00,0x7E
3.678742500000000,109,0x00,0x85
3.678754540000000,109,0x00,0x8F
3.678766560000000,109,0x00,0x9B
3.678778600000000,109,0x00,0xA5
3.678790640000000,109,0x00,0xB0
3.678802660000000,109,0x00,0xBC
3.678814700000000,109,0x00,0xC9
3.678826740000000,109,0x00,0xCF
3.678838780000000,109,0x00,0xD6
3.678850800000000,109,0x00,0xD5
3.678862840000000,109,0x00,0xCF
3.678874860000000,109,0x00,0xCA
3.678886900000000,109,0x00,0xC1
3.678898940000000,109,0x00,0xBB
3.678910960000000,109,0x00,0xB2
3.678923000000000,109,0x00,0xA8
3.678935020000000,109,0x00,0x9D
3.678947060000000,109,0x00,0x96
3.678959100000000,109,0x00,0x8F
3.678971120000000,109,0x00,0x8A
3.678983160000000,109,0x00,0x86
3.678995200000000,109,0x00,0x8A
3.679007220000000,109,0x00,0x8D
3.679019260000000,109,0x00,0x90
3.679031300000000,109,0x00,0x90
3.679043320000000,109,0x00,0x8C
3.679055360000000,109,0x00,0x8A
3.679067380000000,109,0x00,0x89
3.679079420000000,109,0x00,0x8A
3.679091440000000,109,0x00,0x8A
3.679103480000000,109,0x00,0x86
3.679115520000000,109,0x00,0x84
3.679127560000000,109,0x00,0x7C
3.679139580000000,109,0x00,0x79
3.679151620000000,109,0x00,0x7A
3.679163640000000,109,0x00,0x77
3.679175680000000,109,0x00,0x71
3.679187720000000,109,0x00,0x6A
3.679199740000000,109,0x00,0x64
3.679211780000000,109,0x00,0x5C
3.679228860000000,109,0x00,0x56
3.679240900000000,109,0x00,0x58
3.679252920000000,109,0x00,0x62
3.679264960000000,109,0x00,0x65
3.679277000000000,109,0x00,0x66
3.679289020000000,109,0x00,0x66
3.679301060000000,109,0x00,0x67
3.679313080000000,109,0x00,0x64
3.679325120000000,109,0x00,0x5F
3.679337140000000,109,0x00,0x61
3.679349180000000,109,0x00,0x61
3.679361220000000,109,0x00,0x5B
3.679373240000000,109,0x00,0x5B
3.679385280000000,109,0x00,0x5C
3.679397300000000,109,0x00,0x61
3.679409340000000,109,0x00,0x60
3.679421360000000,109,0x00,0x5C
3.679433400000000,109,0x00,0x5B
3.679445420000000,109,0x00,0x5D
3.679457460000000,109,0x00,0x5E
3.679469480000000,109,0x00,0x5A
3.679481520000000,109,0x00,0x5A
3.679493540000000,109,0x00,0x57
3.679505580000000,109,0x00,0x56
3.679517620000000,109,0x00,0x50
3.679529640000000,109,0x00,0x4E
3.679541680000000,109,0x00,0x52
3.679553700000000,109,0x00,0x4D
3.679565740000000,109,0x00,0x4B
3.679577760000000,109,0x00,0x4B
3.679589800000000,109,0x00,0x4B
3.679601840000000,109,0x00,0x4C
3.679613860000000,109,0x00,0x4D
3.679625900000000,109,0x00,0x52
3.679637920000000,109,0x00,0x5B
3.679649960000000,109,0x00,0x5C
3.679662000000000,109,0x00,0x5B
3.679674020000000,109,0x00,0x5A
3.679686060000000,109,0x00,0x5A
3.679698080000000,109,0x00,0x59
3.679710120000000,109,0x00,0x55
3.679722140000000,109,0x00,0x54
3.679734180000000,109,0x00,0x57
3.679746200000000,109,0x00,0x5C
3.679758240000000,109,0x00,0x5E
3.679770280000000,109,0x00,0x5F
3.679782300000000,109,0x00,0x62
3.679794320000000,109,0x00,0x6A
3.679806360000000,109,0x00,0x76
3.679818400000000,109,0x00,0x83
3.679830420000000,109,0x00,0x8E
3.679842460000000,109,0x00,0x94
3.679854480000000,109,0x00,0x98
3.679866520000000,109,0x00,0x99
3.679878560000000,109,0x00,0x95
3.679890580000000,109,0x00,0x90
3.679902620000000,109,0x00,0x8B
3.679914660000000,109,0x00,0x85
3.679926680000000,109,0x00,0x83
3.679938720000000,109,0x00,0x81
3.679950740000000,109,0x00,0x85
3.679962780000000,109,0x00,0x84
3.679974820000000,109,0x00,0x7C
3.679986840000000,109,0x00,0x75
3.679998880000000,109,0x00,0x6C
3.680010900000000,109,0x00,0x67
3.680022940000000,109,0x00,0x66
3.680034980000000,109,0x00,0x5E
3.680047000000000,109,0x00,0x59
3.680059040000000,109,0x00,0x56
3.680071060000000,109,0x00,0x54
3.680083100000000,109,0x00,0x54
3.680095140000000,109,0x00,0x56
3.680107160000000,109,0x00,0x5A
3.680119200000000,109,0x00,0x64
3.680131220000000,109,0x00,0x68
3.680143260000000,109,0x00,0x6B
3.680155300000000,109,0x00,0x70
3.680167320000000,109,0x00,0x75
3.680179360000000,109,0x00,0x7B
3.680191380000000,109,0x00,0x7B
3.680203420000000,109,0x00,0x7E
3.680215440000000,109,0x00,0x84
3.680227480000000,109,0x00,0x86
3.680242560000000,109,0x00,0x81
3.680254580000000,109,0x00,0x7A
3.680266620000000,109,0x00,0x75
3.680278640000000,109,0x00,0x76
3.680290680000000,109,0x00,0x74
3.680302720000000,109,0x00,0x75
3.680314740000000,109,0x00,0x6B
3.680326780000000,109,0x00,0x61
3.680338820000000,109,0x00,0x5E
3.680350840000000,109,0x00,0x5C
3.680362880000000,109,0x00,0x5F
3.680374900000000,109,0x00,0x5F
3.680386940000000,109,0x00,0x5A
3.680398980000000,109,0x00,0x58
3.680411000000000,109,0x00,0x59
3.680423040000000,109,0x00,0x57
3.680435060000000,109,0x00,0x58
3.680447100000000,109,0x00,0x5D
3.680459120000000,109,0x00,0x5E
3.680471160000000,109,0x00,0x61
3.680483180000000,109,0x00,0x61
3.680495220000000,109,0x00,0x68
3.680507260000000,109,0x00,0x6C
3.680519280000000,109,0x00,0x69
3.680531320000000,109,0x00,0x6B
3.680543340000000,109,0x00,0x72
3.680555380000000,109,0x00,0x77
3.680567420000000,109,0x00,0x78
3.680579440000000,109,0x00,0x74
3.680591480000000,109,0x00,0x74
3.680603500000000,109,0x00,0x79
3.680615540000000,109,0x00,0x7E
3.680627580000000,109,0x00,0x7E
3.680639600000000,109,0x00,0x74
3.680651640000000,109,0x00,0x69
3.680663680000000,109,0x00,0x5C
3.680675700000000,109,0x00,0x55
3.680687740000000,109,0x00,0x51
3.680699780000000,109,0x00,0x52
3.680711800000000,109,0x00,0x56
3.680723840000000,109,0x00,0x5E
3.680735880000000,109,0x00,0x66
3.680747900000000,109,0x00,0x68
3.680759940000000,109,0x00,0x67
3.680771960000000,109,0x00,0x60
3.680784000000000,109,0x00,0x5E
3.680796040000000,109,0x00,0x5E
3.680808060000000,109,0x00,0x5E
3.680820100000000,109,0x00,0x5C
3.680832120000000,109,0x00,0x5B
3.680844160000000,109,0x00,0x59
3.680856200000000,109,0x00,0x58
3.680868220000000,109,0x00,0x52
3.680880260000000,109,0x00,0x57
3.680892300000000,109,0x00,0x63
3.680904320000000,109,0x00,0x67
3.680916360000000,109,0x00,0x65
3.680928400000000,109,0x00,0x61
3.680940420000000,109,0x00,0x64
3.680952440000000,109,0x00,0x66
3.680964480000000,109,0x00,0x69
3.680976520000000,109,0x00,0x68
3.680988540000000,109,0x00,0x65
3.681000580000000,109,0x00,0x63
3.681012600000000,109,0x00,0x65
3.681024640000000,109,0x00,0x71
3.681036680000000,109,0x00,0x79
3.681048700000000,109,0x00,0x80
3.681060740000000,109,0x00,0x81
3.681072780000000,109,0x00,0x87
3.681084800000000,109,0x00,0x93
3.681096840000000,109,0x00,0x9D
3.681108880000000,109,0x00,0xAA
3.681120900000000,109,0x00,0xB7
3.681132940000000,109,0x00,0xC2
3.681144960000000,109,0x00,0xCC
3.681157000000000,109,0x00,0xD4
3.681169040000000,109,0x00,0xD6
3.681181060000000,109,0x00,0xD1
3.681193100000000,109,0x00,0xCC
3.681205140000000,109,0x00,0xC5
3.681217160000000,109,0x00,0xC0
3.681229200000000,109,0x00,0xB7
3.681241220000000,109,0x00,0xAF
3.681258420000000,109,0x00,0xA5
3.681270460000000,109,0x00,0x9D
3.681282480000000,109,0x00,0x95
3.681294520000000,109,0x00,0x8E
3.681306560000000,109,0x00,0x8A
3.681318580000000,109,0x00,0x8A
3.681330620000000,109,0x00,0x8F
3.681342640000000,109,0x00,0x90
3.681354680000000,109,0x00,0x8D
3.681366720000000,109,0x00,0x84
3.681378740000000,109,0x00,0x7E
3.681390780000000,109,0x00,0x78
3.681402820000000,109,0x00,0x76
3.681414840000000,109,0x00,0x75
3.681426880000000,109,0x00,0x76
3.681438920000000,109,0x00,0x74
3.681450940000000,109,0x00,0x6B
3.681462980000000,109,0x00,0x69
3.681475000000000,109,0x00,0x6A
3.681487040000000,109,0x00,0x6A
3.681499080000000,109,0x00,0x67
3.681511100000000,109,0x00,0x5F
3.681523140000000,109,0x00,0x59
3.681535160000000,109,0x00,0x56
3.681547200000000,109,0x00,0x4E
3.681559240000000,109,0x00,0x53
3.681571260000000,109,0x00,0x5B
3.681583300000000,109,0x00,0x5F
3.681595340000000,109,0x00,0x61
3.681607360000000,109,0x00,0x63
3.681619400000000,109,0x00,0x62
3.681631420000000,109,0x00,0x5F
3.681643460000000,109,0x00,0x5D
3.681655500000000,109,0x00,0x5C
3.681667520000000,109,0x00,0x5D
3.681679560000000,109,0x00,0x59
3.681691580000000,109,0x00,0x58
3.681703620000000,109,0x00,0x5D
3.681715660000000,109,0x00,0x61
3.681727700000000,109,0x00,0x61
3.681739740000000,109,0x00,0x5E
3.681751760000000,109,0x00,0x5E
3.681763800000000,109,0x00,0x61
3.681775840000000,109,0x00,0x5F
3.681787860000000,109,0x00,0x5B
3.681799900000000,109,0x00,0x5B
3.681811940000000,109,0x00,0x5A
3.681823980000000,109,0x00,0x59
3.681836000000000,109,0x00,0x54
3.681848040000000,109,0x00,0x51
3.681860080000000,109,0x00,0x50
3.681872100000000,109,0x00,0x4E
3.681884140000000,109,0x00,0x4D
3.681896180000000,109,0x00,0x4B
3.681908200000000,109,0x00,0x4B
3.681920240000000,109,0x00,0x4C
3.681932280000000,109,0x00,0x4E
3.681944320000000,109,0x00,0x54
3.681956340000000,109,0x00,0x5D
3.681968380000000,109,0x00,0x5F
3.681980420000000,109,0x00,0x5D
3.681992440000000,109,0x00,0x5B
3.682004480000000,109,0x00,0x59
3.682016520000000,109,0x00,0x57
3.682028540000000,109,0x00,0x52
3.682040580000000,109,0x00,0x4D
3.682052600000000,109,0x00,0x4F
3.682064640000000,109,0x00,0x51
3.682076660000000,109,0x00,0x51
3.682088700000000,109,0x00,0x53
3.682100720000000,109,0x00,0x57
3.682112760000000,109,0x00,0x5D
3.682124800000000,109,0x00,0x63
3.682136840000000,109,0x00,0x6F
3.682148860000000,109,0x00,0x79
3.682160900000000,109,0x00,0x81
3.682172920000000,109,0x00,0x87
3.682184960000000,109,0x00,0x8A
3.682197000000000,109,0x00,0x86
3.682209020000000,109,0x00,0x83
3.682221060000000,109,0x00,0x7D
3.682233100000000,109,0x00,0x78
3.682245120000000,109,0x00,0x75
3.682262300000000,109,0x00,0x78
3.682274340000000,109,0x00,0x81
3.682286380000000,109,0x00,0x87
3.682298400000000,109,0x00,0x87
3.682310440000000,109,0x00,0x86
3.682322480000000,109,0x00,0x7F
3.682334500000000,109,0x00,0x7C
3.682346540000000,109,0x00,0x78
3.682358580000000,109,0x00,0x71
3.682370600000000,109,0x00,0x69
3.682382640000000,109,0x00,0x62
3.682394660000000,109,0x00,0x5D
3.682406700000000,109,0x00,0x5B
3.682418740000000,109,0x00,0x5C
3.682430760000000,109,0x00,0x5D
3.682442800000000,109,0x00,0x61
3.682454820000000,109,0x00,0x64
3.682466860000000,109,0x00,0x62
3.682478900000000,109,0x00,0x66
3.682490920000000,109,0x00,0x69
3.682502960000000,109,0x00,0x6F
3.682515000000000,109,0x00,0x6C
3.682527020000000,109,0x00,0x6E
3.682539060000000,109,0x00,0x7B
3.682551080000000,109,0x00,0x82
3.682563120000000,109,0x00,0x83
3.682575160000000,109,0x00,0x83
3.682587180000000,109,0x00,0x81
3.682599220000000,109,0x00,0x83
3.682611260000000,109,0x00,0x84
3.682623280000000,109,0x00,0x81
3.682635320000000,109,0x00,0x79
3.682647360000000,109,0x00,0x69
3.682659380000000,109,0x00,0x61
3.682671420000000,109,0x00,0x61
3.682683440000000,109,0x00,0x64
3.682695480000000,109,0x00,0x63
3.682707520000000,109,0x00,0x5C
3.682719540000000,109,0x00,0x58
3.682731580000000,109,0x00,0x56
3.682743620000000,109,0x00,0x54
3.682755660000000,109,0x00,0x53
3.682767680000000,109,0x00,0x55
3.682779720000000,109,0x00,0x57
3.682791740000000,109,0x00,0x5A
3.682803780000000,109,0x00,0x5A
3.682815820000000,109,0x00,0x5C
3.682827840000000,109,0x00,0x5F
3.682839880000000,109,0x00,0x5D
3.682851920000000,109,0x00,0x61
3.682863940000000,109,0x00,0x67
3.682875980000000,109,0x00,0x6D
3.682888020000000,109,0x00,0x6F
3.682900060000000,109,0x00,0x70
3.682912080000000,109,0x00,0x73
3.682924120000000,109,0x00,0x7B
3.682936160000000,109,0x00,0x7F
3.682948180000000,109,0x00,0x7F
3.682960220000000,109,0x00,0x77
3.682972260000000,109,0x00,0x6A
3.682984300000000,109,0x00,0x5E
3.682996320000000,109,0x00,0x54
3.683008360000000,109,0x00,0x52
3.683020380000000,109,0x00,0x53
3.683032420000000,109,0x00,0x55
3.683044460000000,109,0x00,0x5B
3.683056480000000,109,0x00,0x63
3.683068520000000,109,0x00,0x68
3.683080560000000,109,0x00,0x6C
3.683092580000000,109,0x00,0x6B
3.683104620000000,109,0x00,0x66
3.683116660000000,109,0x00,0x65
3.683128680000000,109,0x00,0x63
3.683140720000000,109,0x00,0x60
3.683152760000000,109,0x00,0x5F
3.683164780000000,109,0x00,0x5B
3.683176820000000,109,0x00,0x5A
3.683188840000000,109,0x00,0x54
3.683200880000000,109,0x00,0x57
3.683212920000000,109,0x00,0x63
3.683224940000000,109,0x00,0x65
3.683236980000000,109,0x00,0x63
3.683249020000000,109,0x00,0x62
3.683261060000000,109,0x00,0x62
3.683278460000000,109,0x00,0x64
3.683290500000000,109,0x00,0x66
3.683302520000000,109,0x00,0x69
3.683314560000000,109,0x00,0x68
3.683326600000000,109,0x00,0x68
3.683338620000000,109,0x00,0x6C
3.683350660000000,109,0x00,0x73
3.683362700000000,109,0x00,0x78
3.683374740000000,109,0x00,0x7D
3.683386760000000,109,0x00,0x7D
3.683398800000000,109,0x00,0x81
3.683410840000000,109,0x00,0x8B
3.683422860000000,109,0x00,0x95
3.683434900000000,109,0x00,0xA1
3.683446940000000,109,0x00,0xB0
3.683458980000000,109,0x00,0xBC
3.683471000000000,109,0x00,0xC7
3.683483040000000,109,0x00,0xD1
3.683495080000000,109,0x00,0xD7
3.683507120000000,109,0x00,0xD3
3.683519140000000,109,0x00,0xCE
3.683531180000000,109,0x00,0xC7
3.683543220000000,109,0x00,0xC2
3.683555240000000,109,0x00,0xBA
3.683567280000000,109,0x00,0xB2
3.683579320000000,109,0x00,0xA7
3.683591340000000,109,0x00,0x9C
3.683603380000000,109,0x00,0x94
3.683615420000000,109,0x00,0x89
3.683627440000000,109,0x00,0x80
3.683639480000000,109,0x00,0x7F
3.683651520000000,109,0x00,0x82
3.683663560000000,109,0x00,0x88
3.683675580000000,109,0x00,0x82
3.683687620000000,109,0x00,0x79
3.683699660000000,109,0x00,0x72
3.683711680000000,109,0x00,0x6C
3.683723720000000,109,0x00,0x69
3.683735760000000,109,0x00,0x67
3.683747780000000,109,0x00,0x66
3.683759820000000,109,0x00,0x67
3.683771840000000,109,0x00,0x61
3.683783880000000,109,0x00,0x5E
3.683795920000000,109,0x00,0x61
3.683807940000000,109,0x00,0x64
3.683819980000000,109,0x00,0x62
3.683832000000000,109,0x00,0x5F
3.683844040000000,109,0x00,0x5C
3.683856080000000,109,0x00,0x57
3.683868120000000,109,0x00,0x4F
3.683880140000000,109,0x00,0x51
3.683892180000000,109,0x00,0x59
3.683904220000000,109,0x00,0x5D
3.683916240000000,109,0x00,0x61
3.683928280000000,109,0x00,0x60
3.683940320000000,109,0x00,0x60
3.683952340000000,109,0x00,0x5F
3.683964380000000,109,0x00,0x5D
3.683976420000000,109,0x00,0x5F
3.683988460000000,109,0x00,0x60
3.684000480000000,109,0x00,0x5D
3.684012520000000,109,0x00,0x5E
3.684024540000000,109,0x00,0x62
3.684036580000000,109,0x00,0x64
3.684048620000000,109,0x00,0x65
3.684060640000000,109,0x00,0x63
3.684072680000000,109,0x00,0x63
3.684084720000000,109,0x00,0x64
3.684096740000000,109,0x00,0x63
3.684108780000000,109,0x00,0x60
3.684120820000000,109,0x00,0x5E
3.684132840000000,109,0x00,0x60
3.684144880000000,109,0x00,0x62
3.684156920000000,109,0x00,0x5F
3.684168940000000,109,0x00,0x59
3.684180980000000,109,0x00,0x54
3.684193020000000,109,0x00,0x51
3.684205040000000,109,0x00,0x4F
3.684217080000000,109,0x00,0x4E
3.684229120000000,109,0x00,0x4C
3.684241140000000,109,0x00,0x4D
3.684253180000000,109,0x00,0x50
3.684265200000000,109,0x00,0x5A
3.684277240000000,109,0x00,0x63
3.684296100000000,109,0x00,0x63
3.684308140000000,109,0x00,0x5E
3.684320160000000,109,0x00,0x5C
3.684332200000000,109,0x00,0x59
3.684344240000000,109,0x00,0x58
3.684356260000000,109,0x00,0x52
3.684368280000000,109,0x00,0x4F
3.684380320000000,109,0x00,0x4F
3.684392340000000,109,0x00,0x50
3.684404380000000,109,0x00,0x50
3.684416400000000,109,0x00,0x53
3.684428440000000,109,0x00,0x57
3.684440480000000,109,0x00,0x5A
3.684452500000000,109,0x00,0x5A
3.684464540000000,109,0x00,0x5F
3.684476560000000,109,0x00,0x68
3.684488600000000,109,0x00,0x6D
3.684500640000000,109,0x00,0x73
3.684512660000000,109,0x00,0x75
3.684524700000000,109,0x00,0x71
3.684536740000000,109,0x00,0x6E
3.684548760000000,109,0x00,0x68
3.684560800000000,109,0x00,0x66
3.684572840000000,109,0x00,0x66
3.684584860000000,109,0x00,0x6A
3.684596900000000,109,0x00,0x74
3.684608940000000,109,0x00,0x7D
3.684620980000000,109,0x00,0x83
3.684633000000000,109,0x00,0x89
3.684645040000000,109,0x00,0x88
3.684657080000000,109,0x00,0x88
3.684669100000000,109,0x00,0x86
3.684681140000000,109,0x00,0x81
3.684693180000000,109,0x00,0x79
3.684705220000000,109,0x00,0x74
3.684717240000000,109,0x00,0x6D
3.684729280000000,109,0x00,0x6B
3.684741300000000,109,0x00,0x6A
3.684753340000000,109,0x00,0x68
3.684765380000000,109,0x00,0x69
3.684777420000000,109,0x00,0x69
3.684789440000000,109,0x00,0x65
3.684801480000000,109,0x00,0x62
3.684813520000000,109,0x00,0x63
3.684825540000000,109,0x00,0x63
3.684837580000000,109,0x00,0x60
3.684849600000000,109,0x00,0x63
3.684861640000000,109,0x00,0x6D
3.684873680000000,109,0x00,0x77
3.684885700000000,109,0x00,0x7E
3.684897740000000,109,0x00,0x84
3.684909760000000,109,0x00,0x87
3.684921800000000,109,0x00,0x8C
3.684933840000000,109,0x00,0x8C
3.684945880000000,109,0x00,0x8A
3.684957900000000,109,0x00,0x81
3.684969940000000,109,0x00,0x74
3.684981960000000,109,0x00,0x6B
3.684994000000000,109,0x00,0x6D
3.685006040000000,109,0x00,0x71
3.685018060000000,109,0x00,0x72
3.685030100000000,109,0x00,0x66
3.685042140000000,109,0x00,0x5D
3.685054160000000,109,0x00,0x58
3.685066200000000,109,0x00,0x55
3.685078240000000,109,0x00,0x52
3.685090260000000,109,0x00,0x52
3.685102300000000,109,0x00,0x54
3.685114340000000,109,0x00,0x59
3.685126360000000,109,0x00,0x56
3.685138400000000,109,0x00,0x57
3.685150420000000,109,0x00,0x58
3.685162460000000,109,0x00,0x55
3.685174480000000,109,0x00,0x5A
3.685186520000000,109,0x00,0x5E
3.685198540000000,109,0x00,0x62
3.685210580000000,109,0x00,0x66
3.685222620000000,109,0x00,0x68
3.685234640000000,109,0x00,0x6D
3.685246680000000,109,0x00,0x77
3.685258700000000,109,0x00,0x7D
3.685270740000000,109,0x00,0x7D
3.685282780000000,109,0x00,0x7B
3.685299860000000,109,0x00,0x70
3.685311900000000,109,0x00,0x63
3.685323920000000,109,0x00,0x58
3.685335960000000,109,0x00,0x54
3.685347980000000,109,0x00,0x55
3.685360020000000,109,0x00,0x54
3.685372060000000,109,0x00,0x56
3.685384100000000,109,0x00,0x5B
3.685396120000000,109,0x00,0x63
3.685408160000000,109,0x00,0x6B
3.685420180000000,109,0x00,0x6F
3.685432220000000,109,0x00,0x72
3.685444260000000,109,0x00,0x71
3.685456280000000,109,0x00,0x69
3.685468320000000,109,0x00,0x64
3.685480360000000,109,0x00,0x5F
3.685492380000000,109,0x00,0x60
3.685504420000000,109,0x00,0x5B
3.685516460000000,109,0x00,0x55
3.685528480000000,109,0x00,0x54
3.685540520000000,109,0x00,0x5E
3.685552560000000,109,0x00,0x61
3.685564580000000,109,0x00,0x62
3.685576620000000,109,0x00,0x5F
3.685588640000000,109,0x00,0x61
3.685600680000000,109,0x00,0x62
3.685612720000000,109,0x00,0x61
3.685624760000000,109,0x00,0x64
3.685636780000000,109,0x00,0x66
3.685648820000000,109,0x00,0x64
3.685660860000000,109,0x00,0x67
3.685672880000000,109,0x00,0x6D
3.685684900000000,109,0x00,0x6F
3.685696940000000,109,0x00,0x75
3.685708960000000,109,0x00,0x73
3.685721000000000,109,0x00,0x77
3.685733020000000,109,0x00,0x80
3.685745060000000,109,0x00,0x8C
3.685757100000000,109,0x00,0x99
3.685769120000000,109,0x00,0xA8
3.685781160000000,109,0x00,0xB4
3.685793180000000,109,0x00,0xC0
3.685805220000000,109,0x00,0xCC
3.685817260000000,109,0x00,0xD9
3.685829280000000,109,0x00,0xD3
3.685841320000000,109,0x00,0xD0
3.685853340000000,109,0x00,0xCA
3.685865380000000,109,0x00,0xC4
3.685877400000000,109,0x00,0xBC
3.685889420000000,109,0x00,0xB3
3.685901460000000,109,0x00,0xA4
3.685913480000000,109,0x00,0x97
3.685925520000000,109,0x00,0x89
3.685937560000000,109,0x00,0x79
3.685949580000000,109,0x00,0x70
3.685961620000000,109,0x00,0x6E
3.685973660000000,109,0x00,0x73
3.685985680000000,109,0x00,0x78
3.685997720000000,109,0x00,0x77
3.686009760000000,109,0x00,0x71
3.686021780000000,109,0x00,0x6C
3.686033820000000,109,0x00,0x65
3.686045840000000,109,0x00,0x62
3.686057880000000,109,0x00,0x5E
3.686069920000000,109,0x00,0x5D
3.686081940000000,109,0x00,0x5B
3.686093960000000,109,0x00,0x5A
3.686106000000000,109,0x00,0x5B
3.686118020000000,109,0x00,0x60
3.686130060000000,109,0x00,0x5F
3.686142100000000,109,0x00,0x5F
3.686154120000000,109,0x00,0x5F
3.686166160000000,109,0x00,0x5F
3.686178200000000,109,0x00,0x5C
3.686190220000000,109,0x00,0x54
3.686202260000000,109,0x00,0x54
3.686214280000000,109,0x00,0x5C
3.686226320000000,109,0x00,0x60
3.686238340000000,109,0x00,0x63
3.686250380000000,109,0x00,0x64
3.686262420000000,109,0x00,0x61
3.686274440000000,109,0x00,0x5E
3.686286480000000,109,0x00,0x60
3.686298500000000,109,0x00,0x63
3.686313740000000,109,0x00,0x68
3.686325780000000,109,0x00,0x6A
3.686337820000000,109,0x00,0x69
3.686349840000000,109,0x00,0x6A
3.686361880000000,109,0x00,0x6C
3.686373900000000,109,0x00,0x6D
3.686385940000000,109,0x00,0x6A
3.686397980000000,109,0x00,0x6A
3.686410000000000,109,0x00,0x6B
3.686422040000000,109,0x00,0x68
3.686434060000000,109,0x00,0x64
3.686446100000000,109,0x00,0x64
3.686458140000000,109,0x00,0x68
3.686470160000000,109,0x00,0x6E
3.686482200000000,109,0x00,0x6B
3.686494220000000,109,0x00,0x67
3.686506260000000,109,0x00,0x63
3.686518300000000,109,0x00,0x5F
3.686530320000000,109,0x00,0x58
3.686542360000000,109,0x00,0x56
3.686554400000000,109,0x00,0x53
3.686566420000000,109,0x00,0x53
3.686578460000000,109,0x00,0x57
3.686590480000000,109,0x00,0x61
3.686602520000000,109,0x00,0x6D
3.686614540000000,109,0x00,0x6E
3.686626580000000,109,0x00,0x65
3.686638600000000,109,0x00,0x60
3.686650640000000,109,0x00,0x59
3.686662660000000,109,0x00,0x57
3.686674680000000,109,0x00,0x53
3.686686720000000,109,0x00,0x52
3.686698760000000,109,0x00,0x53
3.686710780000000,109,0x00,0x54
3.686722820000000,109,0x00,0x55
3.686734840000000,109,0x00,0x57
3.686746880000000,109,0x00,0x59
3.686758920000000,109,0x00,0x5B
3.686770960000000,109,0x00,0x58
3.686782980000000,109,0x00,0x59
3.686795020000000,109,0x00,0x5E
3.686807060000000,109,0x00,0x60
3.686819080000000,109,0x00,0x64
3.686831120000000,109,0x00,0x64
3.686843160000000,109,0x00,0x61
3.686855180000000,109,0x00,0x5F
3.686867220000000,109,0x00,0x5A
3.686879260000000,109,0x00,0x58
3.686891280000000,109,0x00,0x5B
3.686903320000000,109,0x00,0x5D
3.686915360000000,109,0x00,0x64
3.686927380000000,109,0x00,0x6A
3.686939420000000,109,0x00,0x71
3.686951460000000,109,0x00,0x7A
3.686963480000000,109,0x00,0x80
3.686975520000000,109,0x00,0x84
3.686987540000000,109,0x00,0x85
3.686999580000000,109,0x00,0x82
3.687011620000000,109,0x00,0x7E
3.687023640000000,109,0x00,0x7F
3.687035680000000,109,0x00,0x7F
3.687047700000000,109,0x00,0x7E
3.687059740000000,109,0x00,0x7C
3.687071780000000,109,0x00,0x79
3.687083800000000,109,0x00,0x7B
3.687095840000000,109,0x00,0x79
3.687107880000000,109,0x00,0x73
3.687119920000000,109,0x00,0x69
3.687131940000000,109,0x00,0x63
3.687143980000000,109,0x00,0x5F
3.687156000000000,109,0x00,0x5A
3.687168040000000,109,0x00,0x5A
3.687180080000000,109,0x00,0x60
3.687192120000000,109,0x00,0x68
3.687204140000000,109,0x00,0x70
3.687216180000000,109,0x00,0x77
3.687228220000000,109,0x00,0x7F
3.687240240000000,109,0x00,0x86
3.687252280000000,109,0x00,0x87
3.687264320000000,109,0x00,0x86
3.687276340000000,109,0x00,0x82
3.687288380000000,109,0x00,0x7A
3.687300420000000,109,0x00,0x77
3.687312440000000,109,0x00,0x79
3.687319820000000,109,0x00,0x81
3.687331860000000,109,0x00,0x7F
3.687343880000000,109,0x00,0x76
3.687355920000000,109,0x00,0x69
3.687367960000000,109,0x00,0x5F
3.687380000000000,109,0x00,0x5A
3.687392020000000,109,0x00,0x54
3.687404060000000,109,0x00,0x53
3.687416100000000,109,0x00,0x55
3.687428140000000,109,0x00,0x59
3.687440160000000,109,0x00,0x56
3.687452200000000,109,0x00,0x54
3.687464240000000,109,0x00,0x52
3.687476260000000,109,0x00,0x53
3.687488300000000,109,0x00,0x56
3.687500340000000,109,0x00,0x5B
3.687512380000000,109,0x00,0x5E
3.687524400000000,109,0x00,0x5F
3.687536440000000,109,0x00,0x60
3.687548460000000,109,0x00,0x64
3.687560500000000,109,0x00,0x6D
3.687572540000000,109,0x00,0x72
3.687584560000000,109,0x00,0x78
3.687596600000000,109,0x00,0x7A
3.687608620000000,109,0x00,0x76
3.687620660000000,109,0x00,0x6E
3.687632700000000,109,0x00,0x61
3.687644720000000,109,0x00,0x5B
3.687656760000000,109,0x00,0x58
3.687668780000000,109,0x00,0x54
3.687680820000000,109,0x00,0x53
3.687692860000000,109,0x00,0x54
3.687704880000000,109,0x00,0x5C
3.687716920000000,109,0x00,0x66
3.687728960000000,109,0x00,0x6F
3.687740980000000,109,0x00,0x76
3.687753020000000,109,0x00,0x78
3.687765040000000,109,0x00,0x72
3.687777080000000,109,0x00,0x6B
3.687789120000000,109,0x00,0x65
3.687801160000000,109,0x00,0x64
3.687813180000000,109,0x00,0x5E
3.687825220000000,109,0x00,0x57
3.687837240000000,109,0x00,0x57
3.687849280000000,109,0x00,0x5E
3.687861320000000,109,0x00,0x5F
3.687873340000000,109,0x00,0x5F
3.687885380000000,109,0x00,0x5A
3.687897400000000,109,0x00,0x5B
3.687909440000000,109,0x00,0x5F
3.687921480000000,109,0x00,0x5D
3.687933520000000,109,0x00,0x60
3.687945540000000,109,0x00,0x62
3.687957580000000,109,0x00,0x62
3.687969620000000,109,0x00,0x64
3.687981640000000,109,0x00,0x66
3.687993680000000,109,0x00,0x67
3.688005720000000,109,0x00,0x6A
3.688017740000000,109,0x00,0x6A
3.688029780000000,109,0x00,0x6C
3.688041820000000,109,0x00,0x76
3.688053840000000,109,0x00,0x82
3.688065880000000,109,0x00,0x90
3.688077920000000,109,0x00,0xA0
3.688089940000000,109,0x00,0xAE
3.688101980000000,109,0x00,0xBC
3.688114020000000,109,0x00,0xC6
3.688126060000000,109,0x00,0xD9
3.688138080000000,109,0x00,0xD4
3.688150120000000,109,0x00,0xD0
3.688162140000000,109,0x00,0xCA
3.688174180000000,109,0x00,0xC3
3.688186220000000,109,0x00,0xBA
3.688198260000000,109,0x00,0xAE
3.688210280000000,109,0x00,0x9D
3.688222320000000,109,0x00,0x8A
3.688234340000000,109,0x00,0x79
3.688246380000000,109,0x00,0x6A
3.688258420000000,109,0x00,0x61
3.688270440000000,109,0x00,0x61
3.688282480000000,109,0x00,0x64
3.688294520000000,109,0x00,0x68
3.688306560000000,109,0x00,0x69
3.688318580000000,109,0x00,0x6A
3.688335380000000,109,0x00,0x69
3.688347420000000,109,0x00,0x65
3.688359440000000,109,0x00,0x5F
3.688371480000000,109,0x00,0x5B
3.688383520000000,109,0x00,0x57
3.688395560000000,109,0x00,0x56
3.688407580000000,109,0x00,0x56
3.688419620000000,109,0x00,0x59
3.688431640000000,109,0x00,0x5C
3.688443680000000,109,0x00,0x5D
3.688455720000000,109,0x00,0x5D
3.688467740000000,109,0x00,0x5E
3.688479780000000,109,0x00,0x5E
3.688491820000000,109,0x00,0x60
3.688503840000000,109,0x00,0x5B
3.688515880000000,109,0x00,0x5C
3.688527920000000,109,0x00,0x61
3.688539940000000,109,0x00,0x66
3.688551980000000,109,0x00,0x6A
3.688564000000000,109,0x00,0x6B
3.688576040000000,109,0x00,0x68
3.688588060000000,109,0x00,0x67
3.688600100000000,109,0x00,0x67
3.688612140000000,109,0x00,0x6D
3.688624160000000,109,0x00,0x76
3.688636200000000,109,0x00,0x78
3.688648220000000,109,0x00,0x7B
3.688660260000000,109,0x00,0x78
3.688672280000000,109,0x00,0x76
3.688684320000000,109,0x00,0x77
3.688696340000000,109,0x00,0x77
3.688708380000000,109,0x00,0x77
3.688720420000000,109,0x00,0x76
3.688732440000000,109,0x00,0x72
3.688744480000000,109,0x00,0x6D
3.688756500000000,109,0x00,0x6F
3.688768540000000,109,0x00,0x72
3.688780580000000,109,0x00,0x77
3.688792600000000,109,0x00,0x78
3.688804640000000,109,0x00,0x74
3.688816680000000,109,0x00,0x74
3.688828700000000,109,0x00,0x74
3.688840740000000,109,0x00,0x6F
3.688852780000000,109,0x00,0x6B
3.688864800000000,109,0x00,0x64
3.688876840000000,109,0x00,0x5E
3.688888860000000,109,0x00,0x61
3.688900900000000,109,0x00,0x6D
3.688912940000000,109,0x00,0x7D
3.688924960000000,109,0x00,0x7F
3.688937000000000,109,0x00,0x76
3.688949040000000,109,0x00,0x6D
3.688961060000000,109,0x00,0x62
3.688973100000000,109,0x00,0x5C
3.688985120000000,109,0x00,0x55
3.688997160000000,109,0x00,0x56
3.689009200000000,109,0x00,0x5A
3.689021240000000,109,0x00,0x5D
3.689033260000000,109,0x00,0x5C
3.689045280000000,109,0x00,0x5D
3.689057320000000,109,0x00,0x5D
3.689069360000000,109,0x00,0x5C
3.689081380000000,109,0x00,0x59
3.689093400000000,109,0x00,0x59
3.689105440000000,109,0x00,0x5B
3.689117460000000,109,0x00,0x59
3.689129500000000,109,0x00,0x5D
3.689141520000000,109,0x00,0x5D
3.689153560000000,109,0x00,0x5E
3.689165580000000,109,0x00,0x5A
3.689177620000000,109,0x00,0x54
3.689189660000000,109,0x00,0x54
3.689201680000000,109,0x00,0x55
3.689213720000000,109,0x00,0x58
3.689225760000000,109,0x00,0x5C
3.689237780000000,109,0x00,0x5C
3.689249820000000,109,0x00,0x5F
3.689261860000000,109,0x00,0x66
3.689273900000000,109,0x00,0x68
3.689285920000000,109,0x00,0x6D
3.689297960000000,109,0x00,0x74
3.689309980000000,109,0x00,0x72
3.689322020000000,109,0x00,0x71
3.689334040000000,109,0x00,0x77
3.689351600000000,109,0x00,0x80
3.689363620000000,109,0x00,0x85
3.689375660000000,109,0x00,0x86
3.689387680000000,109,0x00,0x85
3.689399720000000,109,0x00,0x8A
3.689411740000000,109,0x00,0x88
3.689423780000000,109,0x00,0x80
3.689435820000000,109,0x00,0x77
3.689447840000000,109,0x00,0x6B
3.689459880000000,109,0x00,0x60
3.689471920000000,109,0x00,0x57
3.689483940000000,109,0x00,0x54
3.689495980000000,109,0x00,0x5A
3.689508000000000,109,0x00,0x5D
3.689520040000000,109,0x00,0x61
3.689532080000000,109,0x00,0x67
3.689544100000000,109,0x00,0x6F
3.689556140000000,109,0x00,0x75
3.689568160000000,109,0x00,0x78
3.689580200000000,109,0x00,0x78
3.689592240000000,109,0x00,0x78
3.689604280000000,109,0x00,0x78
3.689616300000000,109,0x00,0x79
3.689628340000000,109,0x00,0x80
3.689640360000000,109,0x00,0x86
3.689652400000000,109,0x00,0x8B
3.689664440000000,109,0x00,0x83
3.689676460000000,109,0x00,0x75
3.689688500000000,109,0x00,0x68
3.689700540000000,109,0x00,0x61
3.689712560000000,109,0x00,0x5C
3.689724600000000,109,0x00,0x58
3.689736620000000,109,0x00,0x58
3.689748660000000,109,0x00,0x5A
3.689760700000000,109,0x00,0x57
3.689772740000000,109,0x00,0x54
3.689784760000000,109,0x00,0x51
3.689796800000000,109,0x00,0x51
3.689808820000000,109,0x00,0x54
3.689820860000000,109,0x00,0x58
3.689832900000000,109,0x00,0x58
3.689844940000000,109,0x00,0x56
3.689856960000000,109,0x00,0x54
3.689869000000000,109,0x00,0x59
3.689881020000000,109,0x00,0x60
3.689893060000000,109,0x00,0x66
3.689905080000000,109,0x00,0x6B
3.689917120000000,109,0x00,0x71
3.689929140000000,109,0x00,0x73
3.689941180000000,109,0x00,0x72
3.689953220000000,109,0x00,0x68
3.689965240000000,109,0x00,0x65
3.689977280000000,109,0x00,0x62
3.689989300000000,109,0x00,0x59
3.690001340000000,109,0x00,0x53
3.690013360000000,109,0x00,0x53
3.690025400000000,109,0x00,0x5B
3.690037440000000,109,0x00,0x62
3.690049460000000,109,0x00,0x6A
3.690061500000000,109,0x00,0x71
3.690073540000000,109,0x00,0x79
3.690085560000000,109,0x00,0x7A
3.690097600000000,109,0x00,0x74
3.690109620000000,109,0x00,0x6F
3.690121660000000,109,0x00,0x6D
3.690133680000000,109,0x00,0x69
3.690145720000000,109,0x00,0x61
3.690157760000000,109,0x00,0x5F
3.690169780000000,109,0x00,0x65
3.690181820000000,109,0x00,0x64
3.690193840000000,109,0x00,0x60
3.690205880000000,109,0x00,0x59
3.690217900000000,109,0x00,0x56
3.690229920000000,109,0x00,0x59
3.690241960000000,109,0x00,0x59
3.690254000000000,109,0x00,0x5B
3.690266020000000,109,0x00,0x5D
3.690278060000000,109,0x00,0x5F
3.690290080000000,109,0x00,0x63
3.690302120000000,109,0x00,0x63
3.690314160000000,109,0x00,0x64
3.690326180000000,109,0x00,0x63
3.690338220000000,109,0x00,0x61
3.690357260000000,109,0x00,0x65
3.690369300000000,109,0x00,0x70
3.690381340000000,109,0x00,0x7B
3.690393360000000,109,0x00,0x8A
3.690405400000000,109,0x00,0x99
3.690417420000000,109,0x00,0xA8
3.690429460000000,109,0x00,0xB6
3.690441500000000,109,0x00,0xC0
3.690453540000000,109,0x00,0xD7
3.690465560000000,109,0x00,0xD2
3.690477600000000,109,0x00,0xCE
3.690489620000000,109,0x00,0xC7
3.690501660000000,109,0x00,0xBF
3.690513680000000,109,0x00,0xB4
3.690525720000000,109,0x00,0xA6
3.690537740000000,109,0x00,0x93
3.690549780000000,109,0x00,0x80
3.690561800000000,109,0x00,0x71
3.690573840000000,109,0x00,0x62
3.690585880000000,109,0x00,0x5B
3.690597900000000,109,0x00,0x5B
3.690609940000000,109,0x00,0x5D
3.690621980000000,109,0x00,0x61
3.690634000000000,109,0x00,0x5F
3.690646040000000,109,0x00,0x64
3.690658060000000,109,0x00,0x67
3.690670100000000,109,0x00,0x65
3.690682120000000,109,0x00,0x60
3.690694160000000,109,0x00,0x5A
3.690706200000000,109,0x00,0x57
3.690718220000000,109,0x00,0x5A
3.690730260000000,109,0x00,0x59
3.690742280000000,109,0x00,0x5D
3.690754320000000,109,0x00,0x5F
3.690766340000000,109,0x00,0x5F
3.690778380000000,109,0x00,0x5E
3.690790420000000,109,0x00,0x5D
3.690802440000000,109,0x00,0x60
3.690814480000000,109,0x00,0x63
3.690826500000000,109,0x00,0x63
3.690838520000000,109,0x00,0x63
3.690850560000000,109,0x00,0x66
3.690862580000000,109,0x00,0x68
3.690874620000000,109,0x00,0x6E
3.690886640000000,109,0x00,0x73
3.690898680000000,109,0x00,0x73
3.690910700000000,109,0x00,0x76
3.690922740000000,109,0x00,0x77
3.690934780000000,109,0x00,0x7C
3.690946800000000,109,0x00,0x83
3.690958840000000,109,0x00,0x86
3.690970860000000,109,0x00,0x85
3.690982900000000,109,0x00,0x83
3.690994940000000,109,0x00,0x7F
3.691006960000000,109,0x00,0x7F
3.691019000000000,109,0x00,0x80
3.691031020000000,109,0x00,0x80
3.691043060000000,109,0x00,0x7F
3.691055100000000,109,0x00,0x79
3.691067120000000,109,0x00,0x76
3.691079160000000,109,0x00,0x76
3.691091180000000,109,0x00,0x77
3.691103220000000,109,0x00,0x7A
3.691115260000000,109,0x00,0x78
3.691127280000000,109,0x00,0x79
3.691139320000000,109,0x00,0x7E
3.691151340000000,109,0x00,0x84
3.691163380000000,109,0x00,0x85
3.691175400000000,109,0x00,0x81
3.691187440000000,109,0x00,0x76
3.691199480000000,109,0x00,0x6D
3.691211500000000,109,0x00,0x6B
3.691223540000000,109,0x00,0x76
3.691235560000000,109,0x00,0x85
3.691247600000000,109,0x00,0x8C
3.691259640000000,109,0x00,0x89
3.691271660000000,109,0x00,0x80
3.691283700000000,109,0x00,0x72
3.691295720000000,109,0x00,0x66
3.691307760000000,109,0x00,0x5B
3.691319800000000,109,0x00,0x5A
3.691331840000000,109,0x00,0x60
3.691343860000000,109,0x00,0x65
3.691355900000000,109,0x00,0x66
3.691372680000000,109,0x00,0x64
3.691384720000000,109,0x00,0x65
3.691396760000000,109,0x00,0x65
3.691408800000000,109,0x00,0x5E
3.691420820000000,109,0x00,0x5C
3.691432860000000,109,0x00,0x5E
3.691444900000000,109,0x00,0x5E
3.691456920000000,109,0x00,0x60
3.691468960000000,109,0x00,0x60
3.691481000000000,109,0x00,0x5B
3.691493020000000,109,0x00,0x57
3.691505060000000,109,0x00,0x53
3.691517100000000,109,0x00,0x53
3.691529120000000,109,0x00,0x56
3.691541160000000,109,0x00,0x57
3.691553200000000,109,0x00,0x56
3.691565220000000,109,0x00,0x54
3.691577260000000,109,0x00,0x52
3.691589300000000,109,0x00,0x52
3.691601320000000,109,0x00,0x53
3.691613360000000,109,0x00,0x57
3.691625400000000,109,0x00,0x5E
3.691637420000000,109,0x00,0x60
3.691649460000000,109,0x00,0x63
3.691661500000000,109,0x00,0x69
3.691673540000000,109,0x00,0x74
3.691685560000000,109,0x00,0x7C
3.691697600000000,109,0x00,0x7C
3.691709620000000,109,0x00,0x7F
3.691721660000000,109,0x00,0x87
3.691733700000000,109,0x00,0x8B
3.691745740000000,109,0x00,0x8A
3.691757760000000,109,0x00,0x83
3.691769800000000,109,0x00,0x77
3.691781820000000,109,0x00,0x6A
3.691793860000000,109,0x00,0x5E
3.691805900000000,109,0x00,0x57
3.691817920000000,109,0x00,0x58
3.691829960000000,109,0x00,0x59
3.691842000000000,109,0x00,0x5A
3.691854020000000,109,0x00,0x5D
3.691866060000000,109,0x00,0x61
3.691878080000000,109,0x00,0x65
3.691890120000000,109,0x00,0x67
3.691902160000000,109,0x00,0x66
3.691914200000000,109,0x00,0x6A
3.691926220000000,109,0x00,0x6E
3.691938260000000,109,0x00,0x71
3.691950280000000,109,0x00,0x7A
3.691962320000000,109,0x00,0x84
3.691974360000000,109,0x00,0x8D
3.691986380000000,109,0x00,0x8C
3.691998420000000,109,0x00,0x84
3.692010460000000,109,0x00,0x7A
3.692022480000000,109,0x00,0x71
3.692034520000000,109,0x00,0x6B
3.692046540000000,109,0x00,0x62
3.692058580000000,109,0x00,0x5D
3.692070620000000,109,0x00,0x5C
3.692082640000000,109,0x00,0x57
3.692094680000000,109,0x00,0x54
3.692106720000000,109,0x00,0x53
3.692118740000000,109,0x00,0x51
3.692130780000000,109,0x00,0x54
3.692142820000000,109,0x00,0x55
3.692154840000000,109,0x00,0x55
3.692166880000000,109,0x00,0x52
3.692178900000000,109,0x00,0x4E
3.692190940000000,109,0x00,0x52
3.692202980000000,109,0x00,0x5B
3.692215000000000,109,0x00,0x60
3.692227040000000,109,0x00,0x63
3.692239080000000,109,0x00,0x69
3.692251100000000,109,0x00,0x6C
3.692263140000000,109,0x00,0x70
3.692275160000000,109,0x00,0x6D
3.692287200000000,109,0x00,0x6A
3.692299220000000,109,0x00,0x67
3.692311260000000,109,0x00,0x60
3.692323300000000,109,0x00,0x57
3.692335320000000,109,0x00,0x53
3.692347360000000,109,0x00,0x58
3.692359400000000,109,0x00,0x61
3.692374860000000,109,0x00,0x64
3.692386880000000,109,0x00,0x6B
3.692398920000000,109,0x00,0x73
3.692410940000000,109,0x00,0x77
3.692422980000000,109,0x00,0x79
3.692435020000000,109,0x00,0x78
3.692447040000000,109,0x00,0x77
3.692459080000000,109,0x00,0x76
3.692471100000000,109,0x00,0x6D
3.692483140000000,109,0x00,0x6C
3.692495160000000,109,0x00,0x6E
3.692507200000000,109,0x00,0x6C
3.692519240000000,109,0x00,0x64
3.692531280000000,109,0x00,0x5C
3.692543300000000,109,0x00,0x56
3.692555320000000,109,0x00,0x57
3.692567360000000,109,0x00,0x57
3.692579400000000,109,0x00,0x5D
3.692591420000000,109,0x00,0x61
3.692603460000000,109,0x00,0x63
3.692615500000000,109,0x00,0x66
3.692627520000000,109,0x00,0x67
3.692639560000000,109,0x00,0x65
3.692651580000000,109,0x00,0x64
3.692663620000000,109,0x00,0x62
3.692675660000000,109,0x00,0x66
3.692687680000000,109,0x00,0x6D
3.692699720000000,109,0x00,0x76
3.692711760000000,109,0x00,0x83
3.692723780000000,109,0x00,0x93
3.692735820000000,109,0x00,0xA2
3.692747840000000,109,0x00,0xAF
3.692759880000000,109,0x00,0xBB
3.692771920000000,109,0x00,0xD6
3.692783940000000,109,0x00,0xD0
3.692795980000000,109,0x00,0xCA
3.692808000000000,109,0x00,0xC1
3.692820040000000,109,0x00,0xB8
3.692832080000000,109,0x00,0xAD
3.692844100000000,109,0x00,0x9F
3.692856140000000,109,0x00,0x8C
3.692868180000000,109,0x00,0x78
3.692880200000000,109,0x00,0x6D
3.692892240000000,109,0x00,0x63
3.692904260000000,109,0x00,0x5E
3.692916300000000,109,0x00,0x5E
3.692928340000000,109,0x00,0x5D
3.692940360000000,109,0x00,0x5F
3.692952400000000,109,0x00,0x5E
3.692964420000000,109,0x00,0x61
3.692976460000000,109,0x00,0x6A
3.692988500000000,109,0x00,0x68
3.693000520000000,109,0x00,0x65
3.693012560000000,109,0x00,0x5F
3.693024580000000,109,0x00,0x60
3.693036620000000,109,0x00,0x63
3.693048640000000,109,0x00,0x65
3.693060680000000,109,0x00,0x67
3.693072720000000,109,0x00,0x69
3.693084740000000,109,0x00,0x68
3.693096780000000,109,0x00,0x68
3.693108800000000,109,0x00,0x65
3.693120840000000,109,0x00,0x66
3.693132880000000,109,0x00,0x6A
3.693144920000000,109,0x00,0x6C
3.693156940000000,109,0x00,0x6A
3.693168980000000,109,0x00,0x69
3.693181000000000,109,0x00,0x6C
3.693193040000000,109,0x00,0x74
3.693205080000000,109,0x00,0x7C
3.693217100000000,109,0x00,0x84
3.693229140000000,109,0x00,0x88
3.693241180000000,109,0x00,0x87
3.693253200000000,109,0x00,0x89
3.693265240000000,109,0x00,0x8B
3.693277280000000,109,0x00,0x8C
3.693289300000000,109,0x00,0x89
3.693301340000000,109,0x00,0x87
3.693313380000000,109,0x00,0x84
3.693325400000000,109,0x00,0x83
3.693337440000000,109,0x00,0x84
3.693349480000000,109,0x00,0x86
3.693361500000000,109,0x00,0x81
3.693373540000000,109,0x00,0x7D
3.693390580000000,109,0x00,0x7A
3.693402620000000,109,0x00,0x7A
3.693414660000000,109,0x00,0x79
3.693426680000000,109,0x00,0x77
3.693438720000000,109,0x00,0x74
3.693450760000000,109,0x00,0x77
3.693462780000000,109,0x00,0x81
3.693474820000000,109,0x00,0x88
3.693486860000000,109,0x00,0x8B
3.693498880000000,109,0x00,0x8C
3.693510920000000,109,0x00,0x84
3.693522960000000,109,0x00,0x7A
3.693534980000000,109,0x00,0x70
3.693547020000000,109,0x00,0x76
3.693559040000000,109,0x00,0x88
3.693571080000000,109,0x00,0x91
3.693583120000000,109,0x00,0x93
3.693595140000000,109,0x00,0x90
3.693607160000000,109,0x00,0x84
3.693619200000000,109,0x00,0x74
3.693631220000000,109,0x00,0x64
3.693643260000000,109,0x00,0x63
3.693655280000000,109,0x00,0x69
3.693667320000000,109,0x00,0x70
3.693679340000000,109,0x00,0x70
3.693691380000000,109,0x00,0x71
3.693703400000000,109,0x00,0x72
3.693715440000000,109,0x00,0x71
3.693727480000000,109,0x00,0x6B
3.693739520000000,109,0x00,0x67
3.693751540000000,109,0x00,0x68
3.693763580000000,109,0x00,0x69
3.693775620000000,109,0x00,0x67
3.693787640000000,109,0x00,0x64
3.693799680000000,109,0x00,0x5E
3.693811720000000,109,0x00,0x56
3.693823740000000,109,0x00,0x51
3.693835780000000,109,0x00,0x53
3.693847800000000,109,0x00,0x57
3.693859840000000,109,0x00,0x57
3.693871880000000,109,0x00,0x54
3.693883900000000,109,0x00,0x50
3.693895940000000,109,0x00,0x4D
3.693907960000000,109,0x00,0x4C
3.693920000000000,109,0x00,0x4A
3.693932020000000,109,0x00,0x4D
3.693944060000000,109,0x00,0x55
3.693956100000000,109,0x00,0x56
3.693968140000000,109,0x00,0x59
3.693980160000000,109,0x00,0x5E
3.693992200000000,109,0x00,0x67
3.694004220000000,109,0x00,0x6D
3.694016260000000,109,0x00,0x6A
3.694028300000000,109,0x00,0x6D
3.694040340000000,109,0x00,0x74
3.694052360000000,109,0x00,0x7E
3.694064400000000,109,0x00,0x85
3.694076440000000,109,0x00,0x85
3.694088460000000,109,0x00,0x7E
3.694100500000000,109,0x00,0x73
3.694112540000000,109,0x00,0x66
3.694124560000000,109,0x00,0x5F
3.694136600000000,109,0x00,0x5B
3.694148640000000,109,0x00,0x59
3.694160660000000,109,0x00,0x56
3.694172700000000,109,0x00,0x58
3.694184720000000,109,0x00,0x58
3.694196760000000,109,0x00,0x5A
3.694208800000000,109,0x00,0x5A
3.694220840000000,109,0x00,0x59
3.694232860000000,109,0x00,0x5C
3.694244900000000,109,0x00,0x60
3.694256940000000,109,0x00,0x64
3.694268960000000,109,0x00,0x6D
3.694281000000000,109,0x00,0x7B
3.694293040000000,109,0x00,0x88
3.694305080000000,109,0x00,0x8C
3.694317100000000,109,0x00,0x8E
3.694329140000000,109,0x00,0x8B
3.694341160000000,109,0x00,0x85
3.694353200000000,109,0x00,0x7D
3.694365220000000,109,0x00,0x6E
3.694377260000000,109,0x00,0x63
3.694389300000000,109,0x00,0x5E
3.694406260000000,109,0x00,0x5A
3.694418280000000,109,0x00,0x57
3.694430320000000,109,0x00,0x54
3.694442340000000,109,0x00,0x53
3.694454380000000,109,0x00,0x55
3.694466400000000,109,0x00,0x57
3.694478440000000,109,0x00,0x55
3.694490460000000,109,0x00,0x50
3.694502500000000,109,0x00,0x4C
3.694514540000000,109,0x00,0x4F
3.694526560000000,109,0x00,0x57
3.694538600000000,109,0x00,0x5F
3.694550620000000,109,0x00,0x61
3.694562660000000,109,0x00,0x65
3.694574700000000,109,0x00,0x66
3.694586720000000,109,0x00,0x68
3.694598760000000,109,0x00,0x68
3.694610780000000,109,0x00,0x69
3.694622820000000,109,0x00,0x69
3.694634840000000,109,0x00,0x66
3.694646880000000,109,0x00,0x5B
3.694658900000000,109,0x00,0x57
3.694670940000000,109,0x00,0x5C
3.694682980000000,109,0x00,0x62
3.694695000000000,109,0x00,0x64
3.694707040000000,109,0x00,0x66
3.694719080000000,109,0x00,0x6B
3.694731120000000,109,0x00,0x6F
3.694743140000000,109,0x00,0x74
3.694755180000000,109,0x00,0x77
3.694767200000000,109,0x00,0x76
3.694779240000000,109,0x00,0x77
3.694791280000000,109,0x00,0x72
3.694803320000000,109,0x00,0x72
3.694815340000000,109,0x00,0x74
3.694827380000000,109,0x00,0x72
3.694839400000000,109,0x00,0x6C
3.694851440000000,109,0x00,0x65
3.694863480000000,109,0x00,0x5D
3.694875500000000,109,0x00,0x5C
3.694887540000000,109,0x00,0x5E
3.694899580000000,109,0x00,0x62
3.694911600000000,109,0x00,0x65
3.694923640000000,109,0x00,0x68
3.694935680000000,109,0x00,0x69
3.694947700000000,109,0x00,0x6A
3.694959740000000,109,0x00,0x67
3.694971760000000,109,0x00,0x68
3.694983800000000,109,0x00,0x67
3.694995820000000,109,0x00,0x68
3.695007860000000,109,0x00,0x6E
3.695019900000000,109,0x00,0x75
3.695031940000000,109,0x00,0x7E
3.695043960000000,109,0x00,0x8E
3.695056000000000,109,0x00,0x9B
3.695068020000000,109,0x00,0xA7
3.695080060000000,109,0x00,0xB5
3.695092100000000,109,0x00,0xD4
3.695104120000000,109,0x00,0xCE
3.695116160000000,109,0x00,0xC7
3.695128200000000,109,0x00,0xBD
3.695140220000000,109,0x00,0xB3
3.695152260000000,109,0x00,0xA8
3.695164300000000,109,0x00,0x98
3.695176320000000,109,0x00,0x88
3.695188360000000,109,0x00,0x78
3.695200400000000,109,0x00,0x6D
3.695212420000000,109,0x00,0x64
3.695224460000000,109,0x00,0x61
3.695236500000000,109,0x00,0x60
3.695248520000000,109,0x00,0x5F
3.695260560000000,109,0x00,0x60
3.695272600000000,109,0x00,0x5E
3.695284640000000,109,0x00,0x62
3.695296660000000,109,0x00,0x68
3.695308700000000,109,0x00,0x6D
3.695320720000000,109,0x00,0x6D
3.695332760000000,109,0x00,0x6B
3.695344800000000,109,0x00,0x6C
3.695356840000000,109,0x00,0x71
3.695368860000000,109,0x00,0x74
3.695380900000000,109,0x00,0x76
3.695392920000000,109,0x00,0x79
3.695410500000000,109,0x00,0x79
3.695422540000000,109,0x00,0x77
3.695434580000000,109,0x00,0x74
3.695446620000000,109,0x00,0x6F
3.695458640000000,109,0x00,0x72
3.695470680000000,109,0x00,0x75
3.695482720000000,109,0x00,0x72
3.695494740000000,109,0x00,0x6F
3.695506780000000,109,0x00,0x74
3.695518820000000,109,0x00,0x7B
3.695530840000000,109,0x00,0x86
3.695542880000000,109,0x00,0x8F
3.695554900000000,109,0x00,0x90
3.695566940000000,109,0x00,0x8F
3.695578980000000,109,0x00,0x8D
3.695591020000000,109,0x00,0x8E
3.695603040000000,109,0x00,0x8E
3.695615080000000,109,0x00,0x8C
3.695627100000000,109,0x00,0x89
3.695639140000000,109,0x00,0x86
3.695651180000000,109,0x00,0x86
3.695663200000000,109,0x00,0x83
3.695675240000000,109,0x00,0x7F
3.695687280000000,109,0x00,0x7C
3.695699300000000,109,0x00,0x76
3.695711340000000,109,0x00,0x72
3.695723380000000,109,0x00,0x74
3.695735400000000,109,0x00,0x72
3.695747440000000,109,0x00,0x70
3.695759460000000,109,0x00,0x6C
3.695771500000000,109,0x00,0x6F
3.695783540000000,109,0x00,0x79
3.695795560000000,109,0x00,0x7D
3.695807600000000,109,0x00,0x7F
3.695819620000000,109,0x00,0x84
3.695831660000000,109,0x00,0x83
3.695843700000000,109,0x00,0x77
3.695855720000000,109,0x00,0x6B
3.695867760000000,109,0x00,0x6C
3.695879800000000,109,0x00,0x7C
3.695891840000000,109,0x00,0x8A
3.695903860000000,109,0x00,0x91
3.695915900000000,109,0x00,0x93
3.695927920000000,109,0x00,0x8B
3.695939960000000,109,0x00,0x7B
3.695952000000000,109,0x00,0x6B
3.695964020000000,109,0x00,0x6A
3.695976060000000,109,0x00,0x71
3.695988100000000,109,0x00,0x77
3.696000120000000,109,0x00,0x77
3.696012160000000,109,0x00,0x77
3.696024200000000,109,0x00,0x7C
3.696036220000000,109,0x00,0x80
3.696048260000000,109,0x00,0x7E
3.696060300000000,109,0x00,0x7C
3.696072320000000,109,0x00,0x7B
3.696084360000000,109,0x00,0x7A
3.696096400000000,109,0x00,0x75
3.696108420000000,109,0x00,0x6B
3.696120460000000,109,0x00,0x5F
3.696132500000000,109,0x00,0x59
3.696144520000000,109,0x00,0x55
3.696156560000000,109,0x00,0x57
3.696168580000000,109,0x00,0x5B
3.696180620000000,109,0x00,0x5C
3.696192660000000,109,0x00,0x59
3.696204700000000,109,0x00,0x54
3.696216720000000,109,0x00,0x4F
3.696228760000000,109,0x00,0x4C
3.696240780000000,109,0x00,0x49
3.696252820000000,109,0x00,0x4B
3.696264860000000,109,0x00,0x51
3.696276900000000,109,0x00,0x55
3.696288920000000,109,0x00,0x57
3.696300960000000,109,0x00,0x5A
3.696313000000000,109,0x00,0x5D
3.696325020000000,109,0x00,0x60
3.696337060000000,109,0x00,0x5B
3.696349100000000,109,0x00,0x5A
3.696361120000000,109,0x00,0x62
3.696373160000000,109,0x00,0x6B
3.696385180000000,109,0x00,0x74
3.696397220000000,109,0x00,0x79
3.696409260000000,109,0x00,0x77
3.696428220000000,109,0x00,0x74
3.696440260000000,109,0x00,0x6A
3.696452300000000,109,0x00,0x66
3.696464320000000,109,0x00,0x64
3.696476360000000,109,0x00,0x5C
3.696488380000000,109,0x00,0x58
3.696500420000000,109,0x00,0x55
3.696512460000000,109,0x00,0x55
3.696524480000000,109,0x00,0x55
3.696536520000000,109,0x00,0x51
3.696548560000000,109,0x00,0x52
3.696560600000000,109,0x00,0x56
3.696572620000000,109,0x00,0x58
3.696584660000000,109,0x00,0x5B
3.696596680000000,109,0x00,0x61
3.696608720000000,109,0x00,0x6E
3.696620760000000,109,0x00,0x7B
3.696632780000000,109,0x00,0x84
3.696644820000000,109,0x00,0x8E
3.696656860000000,109,0x00,0x93
3.696668880000000,109,0x00,0x92
3.696680920000000,109,0x00,0x8B
3.696692960000000,109,0x00,0x7C
3.696704980000000,109,0x00,0x6C
3.696717020000000,109,0x00,0x66
3.696729060000000,109,0x00,0x60
3.696741080000000,109,0x00,0x5D
3.696753120000000,109,0x00,0x5C
3.696765160000000,109,0x00,0x5B
3.696777180000000,109,0x00,0x5C
3.696789220000000,109,0x00,0x5F
3.696801260000000,109,0x00,0x5F
3.696813280000000,109,0x00,0x59
3.696825320000000,109,0x00,0x50
3.696837340000000,109,0x00,0x50
3.696849380000000,109,0x00,0x56
3.696861420000000,109,0x00,0x5D
3.696873440000000,109,0x00,0x5E
3.696885480000000,109,0x00,0x61
3.696897520000000,109,0x00,0x61
3.696909540000000,109,0x00,0x62
3.696921580000000,109,0x00,0x61
3.696933620000000,109,0x00,0x61
3.696945640000000,109,0x00,0x63
3.696957680000000,109,0x00,0x61
3.696969720000000,109,0x00,0x5D
3.696981740000000,109,0x00,0x5A
3.696993780000000,109,0x00,0x5D
3.697005820000000,109,0x00,0x63
3.697017860000000,109,0x00,0x61
3.697029880000000,109,0x00,0x62
3.697041920000000,109,0x00,0x64
3.697053960000000,109,0x00,0x65
3.697066000000000,109,0x00,0x69
3.697078020000000,109,0x00,0x6E
3.697090060000000,109,0x00,0x6E
3.697102080000000,109,0x00,0x6E
3.697114120000000,109,0x00,0x70
3.697126160000000,109,0x00,0x71
3.697138180000000,109,0x00,0x72
3.697150220000000,109,0x00,0x72
3.697162260000000,109,0x00,0x6C
3.697174280000000,109,0x00,0x6A
3.697186320000000,109,0x00,0x66
3.697198360000000,109,0x00,0x66
3.697210380000000,109,0x00,0x67
3.697222420000000,109,0x00,0x6A
3.697234440000000,109,0x00,0x6D
3.697246480000000,109,0x00,0x70
3.697258520000000,109,0x00,0x71
3.697270540000000,109,0x00,0x70
3.697282580000000,109,0x00,0x6E
3.697294600000000,109,0x00,0x6F
3.697306640000000,109,0x00,0x6C
3.697318680000000,109,0x00,0x6B
3.697330700000000,109,0x00,0x71
3.697342740000000,109,0x00,0x74
3.697354760000000,109,0x00,0x7B
3.697366800000000,109,0x00,0x88
3.697378820000000,109,0x00,0x94
3.697390860000000,109,0x00,0xA1
3.697402880000000,109,0x00,0xAE
3.697414920000000,109,0x00,0xD2
3.697426960000000,109,0x00,0xCB
3.697443900000000,109,0x00,0xC3
3.697455920000000,109,0x00,0xBA
3.697467960000000,109,0x00,0xB0
3.697480000000000,109,0x00,0xA5
3.697492020000000,109,0x00,0x98
3.697504060000000,109,0x00,0x8A
3.697516100000000,109,0x00,0x7B
3.697528120000000,109,0x00,0x70
3.697540160000000,109,0x00,0x6B
3.697552200000000,109,0x00,0x67
3.697564220000000,109,0x00,0x68
3.697576260000000,109,0x00,0x64
3.697588300000000,109,0x00,0x62
3.697600320000000,109,0x00,0x5F
3.697612360000000,109,0x00,0x65
3.697624400000000,109,0x00,0x6F
3.697636420000000,109,0x00,0x76
3.697648460000000,109,0x00,0x7B
3.697660480000000,109,0x00,0x7A
3.697672520000000,109,0x00,0x7D
3.697684560000000,109,0x00,0x81
3.697696580000000,109,0x00,0x83
3.697708600000000,109,0x00,0x84
3.697720640000000,109,0x00,0x88
3.697732680000000,109,0x00,0x86
3.697744700000000,109,0x00,0x84
3.697756740000000,109,0x00,0x80
3.697768760000000,109,0x00,0x7E
3.697780800000000,109,0x00,0x7C
3.697792840000000,109,0x00,0x79
3.697804860000000,109,0x00,0x76
3.697816900000000,109,0x00,0x78
3.697828940000000,109,0x00,0x79
3.697840960000000,109,0x00,0x80
3.697853000000000,109,0x00,0x88
3.697865040000000,109,0x00,0x8F
3.697877060000000,109,0x00,0x8E
3.697889100000000,109,0x00,0x88
3.697901140000000,109,0x00,0x85
3.697913160000000,109,0x00,0x87
3.697925200000000,109,0x00,0x88
3.697937240000000,109,0x00,0x88
3.697949260000000,109,0x00,0x84
3.697961300000000,109,0x00,0x80
3.697973320000000,109,0x00,0x7E
3.697985360000000,109,0x00,0x78
3.697997380000000,109,0x00,0x72
3.698009420000000,109,0x00,0x6B
3.698021460000000,109,0x00,0x68
3.698033500000000,109,0x00,0x65
3.698045520000000,109,0x00,0x66
3.698057560000000,109,0x00,0x65
3.698069600000000,109,0x00,0x62
3.698081620000000,109,0x00,0x5F
3.698093660000000,109,0x00,0x5F
3.698105700000000,109,0x00,0x69
3.698117720000000,109,0x00,0x6C
3.698129760000000,109,0x00,0x6B
3.698141800000000,109,0x00,0x74
3.698153820000000,109,0x00,0x77
3.698165860000000,109,0x00,0x6F
3.698177880000000,109,0x00,0x61
3.698189920000000,109,0x00,0x5F
3.698201960000000,109,0x00,0x6B
3.698213980000000,109,0x00,0x7C
3.698226020000000,109,0x00,0x86
3.698238060000000,109,0x00,0x8C
3.698250080000000,109,0x00,0x88
3.698262120000000,109,0x00,0x7B
3.698274160000000,109,0x00,0x69
3.698286180000000,109,0x00,0x66
3.698298220000000,109,0x00,0x70
3.698310240000000,109,0x00,0x78
3.698322280000000,109,0x00,0x79
3.698334320000000,109,0x00,0x78
3.698346340000000,109,0x00,0x7F
3.698358380000000,109,0x00,0x88
3.698370420000000,109,0x00,0x8B
3.698382440000000,109,0x00,0x8D
3.698394480000000,109,0x00,0x8E
3.698406520000000,109,0x00,0x8A
3.698418540000000,109,0x00,0x7F
3.698430580000000,109,0x00,0x73
3.698445940000000,109,0x00,0x65
3.698457980000000,109,0x00,0x5E
3.698470000000000,109,0x00,0x5C
3.698482040000000,109,0x00,0x62
3.698494080000000,109,0x00,0x68
3.698506100000000,109,0x00,0x6A
3.698518140000000,109,0x00,0x65
3.698530180000000,109,0x00,0x5D
3.698542200000000,109,0x00,0x54
3.698554240000000,109,0x00,0x50
3.698566260000000,109,0x00,0x4D
3.698578300000000,109,0x00,0x4E
3.698590340000000,109,0x00,0x54
3.698602360000000,109,0x00,0x53
3.698614400000000,109,0x00,0x58
3.698626440000000,109,0x00,0x5A
3.698638460000000,109,0x00,0x58
3.698650500000000,109,0x00,0x57
3.698662540000000,109,0x00,0x54
3.698674580000000,109,0x00,0x52
3.698686600000000,109,0x00,0x58
3.698698640000000,109,0x00,0x5E
3.698710660000000,109,0x00,0x64
3.698722700000000,109,0x00,0x67
3.698734740000000,109,0x00,0x67
3.698746760000000,109,0x00,0x67
3.698758800000000,109,0x00,0x66
3.698770840000000,109,0x00,0x66
3.698782860000000,109,0x00,0x69
3.698794900000000,109,0x00,0x64
3.698806920000000,109,0x00,0x5E
3.698818960000000,109,0x00,0x57
3.698831000000000,109,0x00,0x53
3.698843040000000,109,0x00,0x50
3.698855060000000,109,0x00,0x4D
3.698867100000000,109,0x00,0x4C
3.698879120000000,109,0x00,0x4F
3.698891160000000,109,0x00,0x51
3.698903200000000,109,0x00,0x54
3.698915240000000,109,0x00,0x58
3.698927260000000,109,0x00,0x61
3.698939300000000,109,0x00,0x6D
3.698951320000000,109,0x00,0x76
3.698963360000000,109,0x00,0x84
3.698975380000000,109,0x00,0x90
3.698987420000000,109,0x00,0x92
3.698999440000000,109,0x00,0x8E
3.699011480000000,109,0x00,0x82
3.699023520000000,109,0x00,0x77
3.699035540000000,109,0x00,0x70
3.699047580000000,109,0x00,0x6C
3.699059620000000,109,0x00,0x6A
3.699071640000000,109,0x00,0x69
3.699083680000000,109,0x00,0x68
3.699095700000000,109,0x00,0x6B
3.699107740000000,109,0x00,0x6F
3.699119780000000,109,0x00,0x71
3.699131800000000,109,0x00,0x6A
3.699143840000000,109,0x00,0x5C
3.699155880000000,109,0x00,0x55
3.699167900000000,109,0x00,0x5B
3.699179940000000,109,0x00,0x5E
3.699191980000000,109,0x00,0x60
3.699204020000000,109,0x00,0x61
3.699216040000000,109,0x00,0x61
3.699228080000000,109,0x00,0x63
3.699240120000000,109,0x00,0x5F
3.699252140000000,109,0x00,0x5B
3.699264180000000,109,0x00,0x5D
3.699276220000000,109,0x00,0x5C
3.699288240000000,109,0x00,0x5C
3.699300280000000,109,0x00,0x5D
3.699312320000000,109,0x00,0x60
3.699324360000000,109,0x00,0x61
3.699336380000000,109,0x00,0x5F
3.699348400000000,109,0x00,0x5D
3.699360440000000,109,0x00,0x5F
3.699372480000000,109,0x00,0x61
3.699384500000000,109,0x00,0x63
3.699396540000000,109,0x00,0x67
3.699408560000000,109,0x00,0x67
3.699420600000000,109,0x00,0x67
3.699432640000000,109,0x00,0x67
3.699444680000000,109,0x00,0x6A
3.699462020000000,109,0x00,0x6C
3.699474040000000,109,0x00,0x6A
3.699486080000000,109,0x00,0x66
3.699498120000000,109,0x00,0x67
3.699510140000000,109,0x00,0x67
3.699522180000000,109,0x00,0x6B
3.699534220000000,109,0x00,0x6D
3.699546240000000,109,0x00,0x6E
3.699558280000000,109,0x00,0x74
3.699570320000000,109,0x00,0x77
3.699582340000000,109,0x00,0x79
3.699594380000000,109,0x00,0x7C
3.699606420000000,109,0x00,0x7B
3.699618440000000,109,0x00,0x79
3.699630480000000,109,0x00,0x75
3.699642500000000,109,0x00,0x74
3.699654540000000,109,0x00,0x77
3.699666580000000,109,0x00,0x77
3.699678600000000,109,0x00,0x7C
3.699690640000000,109,0x00,0x85
3.699702660000000,109,0x00,0x90
3.699714700000000,109,0x00,0x9D
3.699726740000000,109,0x00,0xAB
3.699738780000000,109,0x00,0xD0
3.699750800000000,109,0x00,0xCA
3.699762840000000,109,0x00,0xC3
3.699774880000000,109,0x00,0xBA
3.699786900000000,109,0x00,0xB2
3.699798940000000,109,0x00,0xA9
3.699810980000000,109,0x00,0x9E
3.699823020000000,109,0x00,0x91
3.699835040000000,109,0x00,0x86
3.699847080000000,109,0x00,0x7D
3.699859120000000,109,0x00,0x76
3.699871140000000,109,0x00,0x74
3.699883180000000,109,0x00,0x72
3.699895220000000,109,0x00,0x70
3.699907240000000,109,0x00,0x6C
3.699919280000000,109,0x00,0x69
3.699931320000000,109,0x00,0x6E
3.699943340000000,109,0x00,0x78
3.699955380000000,109,0x00,0x81
3.699967420000000,109,0x00,0x85
3.699979440000000,109,0x00,0x88
3.699991480000000,109,0x00,0x8A
3.700003520000000,109,0x00,0x8B
3.700015540000000,109,0x00,0x8B
3.700027580000000,109,0x00,0x89
3.700039600000000,109,0x00,0x8B
3.700051640000000,109,0x00,0x89
3.700063680000000,109,0x00,0x87
3.700075700000000,109,0x00,0x85
3.700087740000000,109,0x00,0x80
3.700099760000000,109,0x00,0x7D
3.700111800000000,109,0x00,0x77
3.700123840000000,109,0x00,0x75
3.700135880000000,109,0x00,0x76
3.700147900000000,109,0x00,0x77
3.700159940000000,109,0x00,0x7B
3.700171960000000,109,0x00,0x81
3.700184000000000,109,0x00,0x83
3.700196040000000,109,0x00,0x7F
3.700208060000000,109,0x00,0x76
3.700220100000000,109,0x00,0x6F
3.700232140000000,109,0x00,0x72
3.700244160000000,109,0x00,0x76
3.700256200000000,109,0x00,0x78
3.700268220000000,109,0x00,0x78
3.700280260000000,109,0x00,0x75
3.700292300000000,109,0x00,0x70
3.700304340000000,109,0x00,0x68
3.700316360000000,109,0x00,0x61
3.700328400000000,109,0x00,0x5D
3.700340440000000,109,0x00,0x59
3.700352460000000,109,0x00,0x5C
3.700364500000000,109,0x00,0x5B
3.700376540000000,109,0x00,0x57
3.700388580000000,109,0x00,0x53
3.700400600000000,109,0x00,0x4E
3.700412640000000,109,0x00,0x52
3.700424660000000,109,0x00,0x5B
3.700436700000000,109,0x00,0x5E
3.700448740000000,109,0x00,0x5E
3.700460780000000,109,0x00,0x65
3.700477600000000,109,0x00,0x6A
3.700489640000000,109,0x00,0x65
3.700501680000000,109,0x00,0x59
3.700513720000000,109,0x00,0x57
3.700525740000000,109,0x00,0x60
3.700537780000000,109,0x00,0x6B
3.700549800000000,109,0x00,0x75
3.700561840000000,109,0x00,0x7B
3.700573880000000,109,0x00,0x7A
3.700585920000000,109,0x00,0x71
3.700597940000000,109,0x00,0x60
3.700609980000000,109,0x00,0x5A
3.700622000000000,109,0x00,0x63
3.700634040000000,109,0x00,0x6D
3.700646080000000,109,0x00,0x72
3.700658120000000,109,0x00,0x72
3.700670140000000,109,0x00,0x7A
3.700682180000000,109,0x00,0x86
3.700694200000000,109,0x00,0x8E
3.700706240000000,109,0x00,0x94
3.700718280000000,109,0x00,0x96
3.700730300000000,109,0x00,0x92
3.700742340000000,109,0x00,0x89
3.700754360000000,109,0x00,0x7C
3.700766400000000,109,0x00,0x71
3.700778420000000,109,0x00,0x6B
3.700790460000000,109,0x00,0x6B
3.700802500000000,109,0x00,0x71
3.700814520000000,109,0x00,0x7C
3.700826560000000,109,0x00,0x7D
3.700838580000000,109,0x00,0x77
3.700850620000000,109,0x00,0x6C
3.700862660000000,109,0x00,0x61
3.700874700000000,109,0x00,0x5B
3.700886720000000,109,0x00,0x59
3.700898760000000,109,0x00,0x5B
3.700910780000000,109,0x00,0x5D
3.700922820000000,109,0x00,0x5A
3.700934860000000,109,0x00,0x59
3.700946900000000,109,0x00,0x5B
3.700958920000000,109,0x00,0x58
3.700970960000000,109,0x00,0x55
3.700982980000000,109,0x00,0x50
3.700995020000000,109,0x00,0x51
3.701007040000000,109,0x00,0x56
3.701019080000000,109,0x00,0x59
3.701031120000000,109,0x00,0x5A
3.701043160000000,109,0x00,0x59
3.701055180000000,109,0x00,0x59
3.701067220000000,109,0x00,0x5A
3.701079240000000,109,0x00,0x59
3.701091280000000,109,0x00,0x5D
3.701103320000000,109,0x00,0x65
3.701115360000000,109,0x00,0x66
3.701127400000000,109,0x00,0x62
3.701139420000000,109,0x00,0x5B
3.701151460000000,109,0x00,0x54
3.701163500000000,109,0x00,0x4F
3.701175520000000,109,0x00,0x4A
3.701187560000000,109,0x00,0x4A
3.701199600000000,109,0x00,0x4C
3.701211640000000,109,0x00,0x4F
3.701223660000000,109,0x00,0x50
3.701235700000000,109,0x00,0x56
3.701247720000000,109,0x00,0x59
3.701259760000000,109,0x00,0x61
3.701271800000000,109,0x00,0x69
3.701283820000000,109,0x00,0x76
3.701295860000000,109,0x00,0x84
3.701307900000000,109,0x00,0x88
3.701319920000000,109,0x00,0x86
3.701331960000000,109,0x00,0x81
3.701343980000000,109,0x00,0x7A
3.701356020000000,109,0x00,0x77
3.701368060000000,109,0x00,0x74
3.701380080000000,109,0x00,0x73
3.701392120000000,109,0x00,0x73
3.701404160000000,109,0x00,0x75
3.701416180000000,109,0x00,0x7A
3.701428220000000,109,0x00,0x80
3.701440260000000,109,0x00,0x83
3.701452300000000,109,0x00,0x7C
3.701464320000000,109,0x00,0x6C
3.701482060000000,109,0x00,0x5F
3.701494080000000,109,0x00,0x5E
3.701506120000000,109,0x00,0x5F
3.701518140000000,109,0x00,0x60
3.701530180000000,109,0x00,0x5F
3.701542220000000,109,0x00,0x60
3.701554260000000,109,0x00,0x60
3.701566280000000,109,0x00,0x5B
3.701578320000000,109,0x00,0x5A
3.701590360000000,109,0x00,0x5A
3.701602380000000,109,0x00,0x59
3.701614420000000,109,0x00,0x5A
3.701626460000000,109,0x00,0x60
3.701638480000000,109,0x00,0x63
3.701650520000000,109,0x00,0x61
3.701662560000000,109,0x00,0x5C
3.701674580000000,109,0x00,0x5B
3.701686620000000,109,0x00,0x5E
3.701698640000000,109,0x00,0x5D
3.701710680000000,109,0x00,0x61
3.701722720000000,109,0x00,0x61
3.701734740000000,109,0x00,0x62
3.701746780000000,109,0x00,0x61
3.701758800000000,109,0x00,0x60
3.701770840000000,109,0x00,0x61
3.701782880000000,109,0x00,0x60
3.701794920000000,109,0x00,0x5D
3.701806940000000,109,0x00,0x5A
3.701818980000000,109,0x00,0x5C
3.701831000000000,109,0x00,0x60
3.701843040000000,109,0x00,0x66
3.701855080000000,109,0x00,0x69
3.701867100000000,109,0x00,0x6F
3.701879140000000,109,0x00,0x76
3.701891180000000,109,0x00,0x7C
3.701903200000000,109,0x00,0x81
3.701915240000000,109,0x00,0x87
3.701927280000000,109,0x00,0x87
3.701939300000000,109,0x00,0x85
3.701951340000000,109,0x00,0x7F
3.701963380000000,109,0x00,0x7C
3.701975400000000,109,0x00,0x7C
3.701987420000000,109,0x00,0x7A
3.701999460000000,109,0x00,0x7C
3.702011500000000,109,0x00,0x81
3.702023520000000,109,0x00,0x8A
3.702035560000000,109,0x00,0x98
3.702047600000000,109,0x00,0xA6
3.702059620000000,109,0x00,0xD1
3.702071660000000,109,0x00,0xCB
3.702083700000000,109,0x00,0xC5
3.702095720000000,109,0x00,0xBE
3.702107760000000,109,0x00,0xB5
3.702119780000000,109,0x00,0xAF
3.702131820000000,109,0x00,0xA5
3.702143860000000,109,0x00,0x9C
3.702155880000000,109,0x00,0x94
3.702167920000000,109,0x00,0x8D
3.702179960000000,109,0x00,0x87
3.702191980000000,109,0x00,0x83
3.702204020000000,109,0x00,0x82
3.702216060000000,109,0x00,0x80
3.702228080000000,109,0x00,0x7E
3.702240120000000,109,0x00,0x78
3.702252160000000,109,0x00,0x79
3.702264180000000,109,0x00,0x7F
3.702276220000000,109,0x00,0x84
3.702288260000000,109,0x00,0x88
3.702300280000000,109,0x00,0x8C
3.702312320000000,109,0x00,0x8D
3.702324360000000,109,0x00,0x8F
3.702336400000000,109,0x00,0x8C
3.702348420000000,109,0x00,0x88
3.702360460000000,109,0x00,0x85
3.702372480000000,109,0x00,0x82
3.702384520000000,109,0x00,0x81
3.702396560000000,109,0x00,0x7F
3.702408600000000,109,0x00,0x79
3.702420620000000,109,0x00,0x72
3.702432660000000,109,0x00,0x6B
3.702444700000000,109,0x00,0x6A
3.702456720000000,109,0x00,0x6B
3.702468760000000,109,0x00,0x69
3.702480800000000,109,0x00,0x69
3.702499600000000,109,0x00,0x6E
3.702511640000000,109,0x00,0x6F
3.702523680000000,109,0x00,0x68
3.702535700000000,109,0x00,0x60
3.702547740000000,109,0x00,0x5B
3.702559780000000,109,0x00,0x5C
3.702571820000000,109,0x00,0x60
3.702583840000000,109,0x00,0x67
3.702595880000000,109,0x00,0x6A
3.702607900000000,109,0x00,0x67
3.702619940000000,109,0x00,0x62
3.702631980000000,109,0x00,0x5A
3.702644020000000,109,0x00,0x54
3.702656060000000,109,0x00,0x53
3.702668080000000,109,0x00,0x54
3.702680120000000,109,0x00,0x57
3.702692160000000,109,0x00,0x55
3.702704180000000,109,0x00,0x4F
3.702716220000000,109,0x00,0x4A
3.702728260000000,109,0x00,0x47
3.702740280000000,109,0x00,0x4A
3.702752320000000,109,0x00,0x54
3.702764360000000,109,0x00,0x58
3.702776400000000,109,0x00,0x59
3.702788420000000,109,0x00,0x5B
3.702800460000000,109,0x00,0x5F
3.702812500000000,109,0x00,0x5E
3.702824520000000,109,0x00,0x57
3.702836560000000,109,0x00,0x55
3.702848600000000,109,0x00,0x5A
3.702860620000000,109,0x00,0x5F
3.702872660000000,109,0x00,0x65
3.702884700000000,109,0x00,0x68
3.702896720000000,109,0x00,0x6A
3.702908760000000,109,0x00,0x62
3.702920800000000,109,0x00,0x53
3.702932820000000,109,0x00,0x4F
3.702944860000000,109,0x00,0x55
3.702956900000000,109,0x00,0x5D
3.702968920000000,109,0x00,0x62
3.702980960000000,109,0x00,0x66
3.702993000000000,109,0x00,0x6F
3.703005020000000,109,0x00,0x7B
3.703017060000000,109,0x00,0x87
3.703029080000000,109,0x00,0x8D
3.703041120000000,109,0x00,0x90
3.703053160000000,109,0x00,0x8C
3.703065180000000,109,0x00,0x86
3.703077220000000,109,0x00,0x80
3.703089260000000,109,0x00,0x78
3.703101280000000,109,0x00,0x76
3.703113320000000,109,0x00,0x78
3.703125340000000,109,0x00,0x81
3.703137380000000,109,0x00,0x8D
3.703149420000000,109,0x00,0x8C
3.703161440000000,109,0x00,0x88
3.703173480000000,109,0x00,0x7D
3.703185520000000,109,0x00,0x72
3.703197540000000,109,0x00,0x6E
3.703209580000000,109,0x00,0x6D
3.703221620000000,109,0x00,0x6E
3.703233640000000,109,0x00,0x6F
3.703245680000000,109,0x00,0x68
3.703257720000000,109,0x00,0x64
3.703269740000000,109,0x00,0x5F
3.703281780000000,109,0x00,0x59
3.703293820000000,109,0x00,0x54
3.703305840000000,109,0x00,0x50
3.703317880000000,109,0x00,0x4F
3.703329900000000,109,0x00,0x52
3.703341940000000,109,0x00,0x55
3.703353960000000,109,0x00,0x53
3.703366000000000,109,0x00,0x54
3.703378020000000,109,0x00,0x52
3.703390060000000,109,0x00,0x52
3.703402080000000,109,0x00,0x50
3.703414120000000,109,0x00,0x53
3.703426140000000,109,0x00,0x5A
3.703438160000000,109,0x00,0x60
3.703450200000000,109,0x00,0x62
3.703462220000000,109,0x00,0x5F
3.703474260000000,109,0x00,0x59
3.703486280000000,109,0x00,0x51
3.703503640000000,109,0x00,0x4A
3.703515660000000,109,0x00,0x47
3.703527680000000,109,0x00,0x4B
3.703539720000000,109,0x00,0x4C
3.703551740000000,109,0x00,0x50
3.703563780000000,109,0x00,0x53
3.703575800000000,109,0x00,0x56
3.703587820000000,109,0x00,0x5B
3.703599860000000,109,0x00,0x61
3.703611880000000,109,0x00,0x6B
3.703623920000000,109,0x00,0x72
3.703635940000000,109,0x00,0x75
3.703647980000000,109,0x00,0x75
3.703660020000000,109,0x00,0x74
3.703672040000000,109,0x00,0x74
3.703684080000000,109,0x00,0x73
3.703696120000000,109,0x00,0x70
3.703708140000000,109,0x00,0x6C
3.703720180000000,109,0x00,0x71
3.703732220000000,109,0x00,0x78
3.703744260000000,109,0x00,0x81
3.703756280000000,109,0x00,0x88
3.703768320000000,109,0x00,0x8C
3.703780340000000,109,0x00,0x8A
3.703792380000000,109,0x00,0x7C
3.703804420000000,109,0x00,0x71
3.703816440000000,109,0x00,0x6B
3.703828460000000,109,0x00,0x68
3.703840500000000,109,0x00,0x65
3.703852540000000,109,0x00,0x62
3.703864560000000,109,0x00,0x5F
3.703876600000000,109,0x00,0x61
3.703888640000000,109,0x00,0x60
3.703900660000000,109,0x00,0x5E
3.703912700000000,109,0x00,0x5B
3.703924720000000,109,0x00,0x59
3.703936760000000,109,0x00,0x59
3.703948780000000,109,0x00,0x5E
3.703960820000000,109,0x00,0x61
3.703972840000000,109,0x00,0x5F
3.703984880000000,109,0x00,0x5B
3.703996900000000,109,0x00,0x5B
3.704008920000000,109,0x00,0x5E
3.704020960000000,109,0x00,0x5F
3.704033000000000,109,0x00,0x61
3.704045020000000,109,0x00,0x61
3.704057040000000,109,0x00,0x61
3.704069080000000,109,0x00,0x60
3.704081100000000,109,0x00,0x5C
3.704093140000000,109,0x00,0x57
3.704105160000000,109,0x00,0x55
3.704117200000000,109,0x00,0x51
3.704129220000000,109,0x00,0x51
3.704141260000000,109,0x00,0x52
3.704153280000000,109,0x00,0x58
3.704165320000000,109,0x00,0x5C
3.704177360000000,109,0x00,0x5F
3.704189380000000,109,0x00,0x66
3.704201420000000,109,0x00,0x73
3.704213460000000,109,0x00,0x7C
3.704225480000000,109,0x00,0x83
3.704237520000000,109,0x00,0x87
3.704249560000000,109,0x00,0x88
3.704261580000000,109,0x00,0x86
3.704273620000000,109,0x00,0x81
3.704285660000000,109,0x00,0x7E
3.704297700000000,109,0x00,0x7C
3.704309720000000,109,0x00,0x7B
3.704321760000000,109,0x00,0x79
3.704333780000000,109,0x00,0x7C
3.704345820000000,109,0x00,0x86
3.704357860000000,109,0x00,0x92
3.704369880000000,109,0x00,0xA3
3.704381920000000,109,0x00,0xD1
3.704393940000000,109,0x00,0xCB
3.704405980000000,109,0x00,0xC6
3.704418000000000,109,0x00,0xBF
3.704430040000000,109,0x00,0xB9
3.704442080000000,109,0x00,0xB2
3.704454100000000,109,0x00,0xAC
3.704466140000000,109,0x00,0xA2
3.704478180000000,109,0x00,0x9A
3.704490200000000,109,0x00,0x95
3.704502240000000,109,0x00,0x90
3.704517740000000,109,0x00,0x8C
3.704529780000000,109,0x00,0x8A
3.704541820000000,109,0x00,0x88
3.704553840000000,109,0x00,0x87
3.704565880000000,109,0x00,0x83
3.704577920000000,109,0x00,0x7F
3.704589940000000,109,0x00,0x7B
3.704601980000000,109,0x00,0x7C
3.704614020000000,109,0x00,0x7C
3.704626040000000,109,0x00,0x80
3.704638080000000,109,0x00,0x86
3.704650120000000,109,0x00,0x88
3.704662140000000,109,0x00,0x83
3.704674180000000,109,0x00,0x7E
3.704686200000000,109,0x00,0x76
3.704698240000000,109,0x00,0x71
3.704710280000000,109,0x00,0x72
3.704722320000000,109,0x00,0x71
3.704734340000000,109,0x00,0x6B
3.704746380000000,109,0x00,0x66
3.704758400000000,109,0x00,0x5F
3.704770440000000,109,0x00,0x5E
3.704782480000000,109,0x00,0x60
3.704794500000000,109,0x00,0x5E
3.704806520000000,109,0x00,0x5D
3.704818560000000,109,0x00,0x5D
3.704830600000000,109,0x00,0x5C
3.704842620000000,109,0x00,0x58
3.704854660000000,109,0x00,0x51
3.704866700000000,109,0x00,0x4E
3.704878720000000,109,0x00,0x51
3.704890760000000,109,0x00,0x56
3.704902800000000,109,0x00,0x5C
3.704914820000000,109,0x00,0x60
3.704926860000000,109,0x00,0x5F
3.704938900000000,109,0x00,0x59
3.704950920000000,109,0x00,0x51
3.704962960000000,109,0x00,0x4D
3.704974980000000,109,0x00,0x4E
3.704987020000000,109,0x00,0x54
3.704999060000000,109,0x00,0x58
3.705011080000000,109,0x00,0x53
3.705023120000000,109,0x00,0x4E
3.705035160000000,109,0x00,0x49
3.705047180000000,109,0x00,0x44
3.705059220000000,109,0x00,0x47
3.705071260000000,109,0x00,0x50
3.705083280000000,109,0x00,0x54
3.705095320000000,109,0x00,0x56
3.705107360000000,109,0x00,0x55
3.705119400000000,109,0x00,0x58
3.705131420000000,109,0x00,0x5A
3.705143460000000,109,0x00,0x54
3.705155480000000,109,0x00,0x55
3.705167520000000,109,0x00,0x59
3.705179560000000,109,0x00,0x58
3.705191600000000,109,0x00,0x5B
3.705203620000000,109,0x00,0x5D
3.705215660000000,109,0x00,0x5E
3.705227680000000,109,0x00,0x56
3.705239720000000,109,0x00,0x4B
3.705251760000000,109,0x00,0x49
3.705263800000000,109,0x00,0x4E
3.705275820000000,109,0x00,0x4F
3.705287860000000,109,0x00,0x55
3.705299880000000,109,0x00,0x5B
3.705311920000000,109,0x00,0x64
3.705323960000000,109,0x00,0x70
3.705335980000000,109,0x00,0x77
3.705348020000000,109,0x00,0x7B
3.705360060000000,109,0x00,0x7F
3.705372080000000,109,0x00,0x7A
3.705384120000000,109,0x00,0x75
3.705396160000000,109,0x00,0x74
3.705408180000000,109,0x00,0x74
3.705420220000000,109,0x00,0x75
3.705432260000000,109,0x00,0x7D
3.705444280000000,109,0x00,0x88
3.705456320000000,109,0x00,0x91
3.705468340000000,109,0x00,0x95
3.705480380000000,109,0x00,0x92
3.705492400000000,109,0x00,0x8A
3.705504440000000,109,0x00,0x85
3.705516460000000,109,0x00,0x84
3.705533660000000,109,0x00,0x84
3.705545700000000,109,0x00,0x84
3.705557720000000,109,0x00,0x86
3.705569760000000,109,0x00,0x80
3.705581780000000,109,0x00,0x78
3.705593820000000,109,0x00,0x6E
3.705605840000000,109,0x00,0x66
3.705617880000000,109,0x00,0x5F
3.705629900000000,109,0x00,0x56
3.705641940000000,109,0x00,0x54
3.705653960000000,109,0x00,0x54
3.705666000000000,109,0x00,0x55
3.705678020000000,109,0x00,0x54
3.705690060000000,109,0x00,0x52
3.705702100000000,109,0x00,0x53
3.705714120000000,109,0x00,0x51
3.705726160000000,109,0x00,0x4D
3.705738200000000,109,0x00,0x4F
3.705750220000000,109,0x00,0x52
3.705762260000000,109,0x00,0x56
3.705774280000000,109,0x00,0x5D
3.705786320000000,109,0x00,0x61
3.705798360000000,109,0x00,0x5D
3.705810380000000,109,0x00,0x55
3.705822420000000,109,0x00,0x4A
3.705834440000000,109,0x00,0x4A
3.705846480000000,109,0x00,0x4C
3.705858520000000,109,0x00,0x4C
3.705870540000000,109,0x00,0x4E
3.705882580000000,109,0x00,0x52
3.705894600000000,109,0x00,0x55
3.705906640000000,109,0x00,0x59
3.705918680000000,109,0x00,0x5C
3.705930700000000,109,0x00,0x60
3.705942740000000,109,0x00,0x65
3.705954780000000,109,0x00,0x64
3.705966800000000,109,0x00,0x62
3.705978840000000,109,0x00,0x64
3.705990880000000,109,0x00,0x66
3.706002900000000,109,0x00,0x65
3.706014940000000,109,0x00,0x62
3.706026980000000,109,0x00,0x61
3.706039000000000,109,0x00,0x67
3.706051040000000,109,0x00,0x6F
3.706063060000000,109,0x00,0x7C
3.706075100000000,109,0x00,0x84
3.706087120000000,109,0x00,0x8B
3.706099160000000,109,0x00,0x8B
3.706111200000000,109,0x00,0x86
3.706123220000000,109,0x00,0x7E
3.706135260000000,109,0x00,0x78
3.706147300000000,109,0x00,0x74
3.706159320000000,109,0x00,0x6E
3.706171360000000,109,0x00,0x6B
3.706183380000000,109,0x00,0x67
3.706195420000000,109,0x00,0x6A
3.706207460000000,109,0x00,0x6D
3.706219480000000,109,0x00,0x67
3.706231520000000,109,0x00,0x64
3.706243560000000,109,0x00,0x5E
3.706255580000000,109,0x00,0x5C
3.706267620000000,109,0x00,0x60
3.706279640000000,109,0x00,0x5F
3.706291680000000,109,0x00,0x5E
3.706303720000000,109,0x00,0x5B
3.706315740000000,109,0x00,0x5C
3.706327780000000,109,0x00,0x5F
3.706339800000000,109,0x00,0x62
3.706351840000000,109,0x00,0x63
3.706363880000000,109,0x00,0x64
3.706375900000000,109,0x00,0x61
3.706387940000000,109,0x00,0x5F
3.706399960000000,109,0x00,0x57
3.706412000000000,109,0x00,0x52
3.706424040000000,109,0x00,0x4F
3.706436080000000,109,0x00,0x4E
3.706448100000000,109,0x00,0x4C
3.706460140000000,109,0x00,0x4D
3.706472160000000,109,0x00,0x52
3.706484200000000,109,0x00,0x57
3.706496240000000,109,0x00,0x59
3.706508260000000,109,0x00,0x5D
3.706520300000000,109,0x00,0x6A
3.706537360000000,109,0x00,0x76
3.706549400000000,109,0x00,0x7D
3.706561420000000,109,0x00,0x7F
3.706573460000000,109,0x00,0x7B
3.706585500000000,109,0x00,0x7B
3.706597520000000,109,0x00,0x78
3.706609560000000,109,0x00,0x75
3.706621580000000,109,0x00,0x77
3.706633620000000,109,0x00,0x75
3.706645660000000,109,0x00,0x73
3.706657700000000,109,0x00,0x76
3.706669720000000,109,0x00,0x80
3.706681760000000,109,0x00,0x8F
3.706693780000000,109,0x00,0xA0
3.706705820000000,109,0x00,0xD0
3.706717860000000,109,0x00,0xCA
3.706729900000000,109,0x00,0xC4
3.706741920000000,109,0x00,0xBF
3.706753960000000,109,0x00,0xB8
3.706765980000000,109,0x00,0xB0
3.706778020000000,109,0x00,0xA9
3.706790060000000,109,0x00,0x9F
3.706802080000000,109,0x00,0x96
3.706814120000000,109,0x00,0x90
3.706826140000000,109,0x00,0x8C
3.706838160000000,109,0x00,0x88
3.706850200000000,109,0x00,0x86
3.706862220000000,109,0x00,0x84
3.706874260000000,109,0x00,0x86
3.706886280000000,109,0x00,0x80
3.706898320000000,109,0x00,0x7A
3.706910360000000,109,0x00,0x71
3.706922380000000,109,0x00,0x6C
3.706934420000000,109,0x00,0x6C
3.706946440000000,109,0x00,0x71
3.706958480000000,109,0x00,0x7A
3.706970520000000,109,0x00,0x7C
3.706982540000000,109,0x00,0x76
3.706994580000000,109,0x00,0x6F
3.707006600000000,109,0x00,0x69
3.707018640000000,109,0x00,0x61
3.707030680000000,109,0x00,0x60
3.707042700000000,109,0x00,0x5F
3.707054740000000,109,0x00,0x5E
3.707066780000000,109,0x00,0x5C
3.707078800000000,109,0x00,0x57
3.707090840000000,109,0x00,0x56
3.707102880000000,109,0x00,0x59
3.707114900000000,109,0x00,0x57
3.707126940000000,109,0x00,0x54
3.707138960000000,109,0x00,0x54
3.707151000000000,109,0x00,0x50
3.707163040000000,109,0x00,0x4E
3.707175060000000,109,0x00,0x4B
3.707187100000000,109,0x00,0x49
3.707199140000000,109,0x00,0x4E
3.707211160000000,109,0x00,0x50
3.707223200000000,109,0x00,0x57
3.707235220000000,109,0x00,0x5D
3.707247260000000,109,0x00,0x5A
3.707259300000000,109,0x00,0x53
3.707271320000000,109,0x00,0x4A
3.707283340000000,109,0x00,0x49
3.707295380000000,109,0x00,0x4E
3.707307420000000,109,0x00,0x55
3.707319440000000,109,0x00,0x5A
3.707331480000000,109,0x00,0x55
3.707343500000000,109,0x00,0x50
3.707355540000000,109,0x00,0x4A
3.707367560000000,109,0x00,0x46
3.707379600000000,109,0x00,0x47
3.707391640000000,109,0x00,0x4E
3.707403660000000,109,0x00,0x54
3.707415700000000,109,0x00,0x55
3.707427720000000,109,0x00,0x55
3.707439760000000,109,0x00,0x54
3.707451780000000,109,0x00,0x56
3.707463820000000,109,0x00,0x53
3.707475860000000,109,0x00,0x54
3.707487880000000,109,0x00,0x59
3.707499920000000,109,0x00,0x5B
3.707511940000000,109,0x00,0x5C
3.707523980000000,109,0x00,0x5B
3.707536020000000,109,0x00,0x59
3.707553560000000,109,0x00,0x52
3.707565600000000,109,0x00,0x4A
3.707577640000000,109,0x00,0x46
3.707589680000000,109,0x00,0x47
3.707601700000000,109,0x00,0x4A
3.707613740000000,109,0x00,0x4F
3.707625780000000,109,0x00,0x54
3.707637800000000,109,0x00,0x5C
3.707649840000000,109,0x00,0x63
3.707661880000000,109,0x00,0x63
3.707673900000000,109,0x00,0x66
3.707685940000000,109,0x00,0x6A
3.707697960000000,109,0x00,0x64
3.707710000000000,109,0x00,0x62
3.707722020000000,109,0x00,0x64
3.707734060000000,109,0x00,0x66
3.707746100000000,109,0x00,0x6B
3.707758120000000,109,0x00,0x72
3.707770160000000,109,0x00,0x7D
3.707782180000000,109,0x00,0x8A
3.707794220000000,109,0x00,0x8F
3.707806260000000,109,0x00,0x91
3.707818280000000,109,0x00,0x91
3.707830320000000,109,0x00,0x8F
3.707842340000000,109,0x00,0x8F
3.707854380000000,109,0x00,0x92
3.707866420000000,109,0x00,0x93
3.707878440000000,109,0x00,0x93
3.707890480000000,109,0x00,0x91
3.707902500000000,109,0x00,0x8C
3.707914540000000,109,0x00,0x84
3.707926580000000,109,0x00,0x7B
3.707938620000000,109,0x00,0x70
3.707950640000000,109,0x00,0x65
3.707962680000000,109,0x00,0x60
3.707974700000000,109,0x00,0x5E
3.707986740000000,109,0x00,0x5A
3.707998780000000,109,0x00,0x57
3.708010800000000,109,0x00,0x56
3.708022840000000,109,0x00,0x53
3.708034860000000,109,0x00,0x52
3.708046900000000,109,0x00,0x4E
3.708058940000000,109,0x00,0x4D
3.708070960000000,109,0x00,0x4F
3.708083000000000,109,0x00,0x51
3.708095040000000,109,0x00,0x55
3.708107060000000,109,0x00,0x5D
3.708119100000000,109,0x00,0x5C
3.708131120000000,109,0x00,0x5B
3.708143160000000,109,0x00,0x52
3.708155200000000,109,0x00,0x4E
3.708167240000000,109,0x00,0x50
3.708179260000000,109,0x00,0x51
3.708191300000000,109,0x00,0x52
3.708203320000000,109,0x00,0x52
3.708215360000000,109,0x00,0x54
3.708227400000000,109,0x00,0x58
3.708239440000000,109,0x00,0x5B
3.708251460000000,109,0x00,0x5D
3.708263500000000,109,0x00,0x5E
3.708275540000000,109,0x00,0x5D
3.708287560000000,109,0x00,0x5A
3.708299600000000,109,0x00,0x5C
3.708311640000000,109,0x00,0x5E
3.708323660000000,109,0x00,0x5C
3.708335700000000,109,0x00,0x59
3.708347740000000,109,0x00,0x59
3.708359760000000,109,0x00,0x5D
3.708371800000000,109,0x00,0x64
3.708383820000000,109,0x00,0x6D
3.708395860000000,109,0x00,0x73
3.708407900000000,109,0x00,0x78
3.708419940000000,109,0x00,0x7E
3.708431960000000,109,0x00,0x7F
3.708444000000000,109,0x00,0x7D
3.708456020000000,109,0x00,0x7B
3.708468060000000,109,0x00,0x79
3.708480080000000,109,0x00,0x74
3.708492120000000,109,0x00,0x71
3.708504140000000,109,0x00,0x72
3.708516180000000,109,0x00,0x77
3.708528200000000,109,0x00,0x7A
3.708540240000000,109,0x00,0x77
3.708552260000000,109,0x00,0x72
3.708571240000000,109,0x00,0x69
3.708583260000000,109,0x00,0x66
3.708595300000000,109,0x00,0x65
3.708607320000000,109,0x00,0x62
3.708619360000000,109,0x00,0x5E
3.708631400000000,109,0x00,0x5A
3.708643440000000,109,0x00,0x5B
3.708655460000000,109,0x00,0x60
3.708667500000000,109,0x00,0x66
3.708679520000000,109,0x00,0x6A
3.708691560000000,109,0x00,0x68
3.708703600000000,109,0x00,0x63
3.708715640000000,109,0x00,0x60
3.708727660000000,109,0x00,0x54
3.708739700000000,109,0x00,0x4F
3.708751720000000,109,0x00,0x4D
3.708763760000000,109,0x00,0x4C
3.708775800000000,109,0x00,0x4B
3.708787840000000,109,0x00,0x4E
3.708799860000000,109,0x00,0x51
3.708811900000000,109,0x00,0x55
3.708823920000000,109,0x00,0x58
3.708835960000000,109,0x00,0x59
3.708847980000000,109,0x00,0x64
3.708860020000000,109,0x00,0x6D
3.708872060000000,109,0x00,0x73
3.708884080000000,109,0x00,0x71
3.708896120000000,109,0x00,0x6D
3.708908140000000,109,0x00,0x6D
3.708920180000000,109,0x00,0x68
3.708932220000000,109,0x00,0x6A
3.708944240000000,109,0x00,0x6D
3.708956280000000,109,0x00,0x6E
3.708968300000000,109,0x00,0x6E
3.708980340000000,109,0x00,0x73
3.708992380000000,109,0x00,0x7D
3.709004400000000,109,0x00,0x8D
3.709016440000000,109,0x00,0x9D
3.709028480000000,109,0x00,0xD1
3.709040500000000,109,0x00,0xCA
3.709052540000000,109,0x00,0xC4
3.709064580000000,109,0x00,0xBC
3.709076600000000,109,0x00,0xB2
3.709088640000000,109,0x00,0xAB
3.709100660000000,109,0x00,0xA2
3.709112700000000,109,0x00,0x92
3.709124720000000,109,0x00,0x89
3.709136760000000,109,0x00,0x83
3.709148780000000,109,0x00,0x81
3.709160820000000,109,0x00,0x7D
3.709172860000000,109,0x00,0x7C
3.709184880000000,109,0x00,0x7C
3.709196920000000,109,0x00,0x80
3.709208940000000,109,0x00,0x7B
3.709220980000000,109,0x00,0x74
3.709233000000000,109,0x00,0x69
3.709245040000000,109,0x00,0x61
3.709257060000000,109,0x00,0x61
3.709269100000000,109,0x00,0x65
3.709281120000000,109,0x00,0x6C
3.709293160000000,109,0x00,0x71
3.709305180000000,109,0x00,0x6B
3.709317220000000,109,0x00,0x63
3.709329240000000,109,0x00,0x5D
3.709341280000000,109,0x00,0x58
3.709353300000000,109,0x00,0x54
3.709365340000000,109,0x00,0x54
3.709377380000000,109,0x00,0x58
3.709389400000000,109,0x00,0x58
3.709401440000000,109,0x00,0x53
3.709413460000000,109,0x00,0x51
3.709425500000000,109,0x00,0x55
3.709437540000000,109,0x00,0x52
3.709449560000000,109,0x00,0x52
3.709461600000000,109,0x00,0x51
3.709473620000000,109,0x00,0x51
3.709485660000000,109,0x00,0x4F
3.709497680000000,109,0x00,0x4B
3.709509720000000,109,0x00,0x4A
3.709521740000000,109,0x00,0x4F
3.709533780000000,109,0x00,0x51
3.709545820000000,109,0x00,0x55
3.709557840000000,109,0x00,0x5A
3.709574660000000,109,0x00,0x57
3.709586680000000,109,0x00,0x4E
3.709598720000000,109,0x00,0x46
3.709610740000000,109,0x00,0x49
3.709622780000000,109,0x00,0x51
3.709634820000000,109,0x00,0x5C
3.709646840000000,109,0x00,0x60
3.709658880000000,109,0x00,0x5C
3.709670900000000,109,0x00,0x54
3.709682940000000,109,0x00,0x4F
3.709694960000000,109,0x00,0x47
3.709707000000000,109,0x00,0x4C
3.709719020000000,109,0x00,0x51
3.709731060000000,109,0x00,0x55
3.709743080000000,109,0x00,0x57
3.709755120000000,109,0x00,0x54
3.709767160000000,109,0x00,0x54
3.709779180000000,109,0x00,0x54
3.709791220000000,109,0x00,0x53
3.709803240000000,109,0x00,0x55
3.709815280000000,109,0x00,0x5C
3.709827300000000,109,0x00,0x5F
3.709839340000000,109,0x00,0x60
3.709851360000000,109,0x00,0x5E
3.709863400000000,109,0x00,0x58
3.709875420000000,109,0x00,0x52
3.709887460000000,109,0x00,0x47
3.709899480000000,109,0x00,0x45
3.709911520000000,109,0x00,0x45
3.709923560000000,109,0x00,0x48
3.709935580000000,109,0x00,0x4C
3.709947620000000,109,0x00,0x51
3.709959640000000,109,0x00,0x56
3.709971680000000,109,0x00,0x59
3.709983720000000,109,0x00,0x56
3.709995740000000,109,0x00,0x53
3.710007780000000,109,0x00,0x55
3.710019800000000,109,0x00,0x53
3.710031840000000,109,0x00,0x53
3.710043860000000,109,0x00,0x59
3.710055900000000,109,0x00,0x5D
3.710067940000000,109,0x00,0x60
3.710079960000000,109,0x00,0x62
3.710092000000000,109,0x00,0x69
3.710104020000000,109,0x00,0x74
3.710116060000000,109,0x00,0x7C
3.710128100000000,109,0x00,0x80
3.710140120000000,109,0x00,0x81
3.710152160000000,109,0x00,0x88
3.710164180000000,109,0x00,0x8C
3.710176220000000,109,0x00,0x8D
3.710188260000000,109,0x00,0x90
3.710200280000000,109,0x00,0x92
3.710212320000000,109,0x00,0x95
3.710224340000000,109,0x00,0x95
3.710236380000000,109,0x00,0x93
3.710248420000000,109,0x00,0x8C
3.710260460000000,109,0x00,0x85
3.710272480000000,109,0x00,0x7A
3.710284520000000,109,0x00,0x75
3.710296540000000,109,0x00,0x71
3.710308580000000,109,0x00,0x6C
3.710320620000000,109,0x00,0x66
3.710332640000000,109,0x00,0x62
3.710344680000000,109,0x00,0x5F
3.710356700000000,109,0x00,0x5C
3.710368740000000,109,0x00,0x55
3.710380760000000,109,0x00,0x52
3.710392800000000,109,0x00,0x52
3.710404840000000,109,0x00,0x51
3.710416860000000,109,0x00,0x55
3.710428900000000,109,0x00,0x57
3.710440920000000,109,0x00,0x5F
3.710452960000000,109,0x00,0x60
3.710464980000000,109,0x00,0x5B
3.710477020000000,109,0x00,0x5B
3.710489040000000,109,0x00,0x5E
3.710501080000000,109,0x00,0x5A
3.710513100000000,109,0x00,0x59
3.710525140000000,109,0x00,0x57
3.710537160000000,109,0x00,0x56
3.710549200000000,109,0x00,0x5B
3.710561240000000,109,0x00,0x5C
3.710573260000000,109,0x00,0x5C
3.710588660000000,109,0x00,0x5E
3.710600700000000,109,0x00,0x5C
3.710612740000000,109,0x00,0x59
3.710624760000000,109,0x00,0x58
3.710636800000000,109,0x00,0x59
3.710648820000000,109,0x00,0x5A
3.710660860000000,109,0x00,0x54
3.710672900000000,109,0x00,0x57
3.710684920000000,109,0x00,0x58
3.710696960000000,109,0x00,0x5B
3.710708980000000,109,0x00,0x5F
3.710721020000000,109,0x00,0x61
3.710733060000000,109,0x00,0x64
3.710745080000000,109,0x00,0x6B
3.710757120000000,109,0x00,0x6E
3.710769140000000,109,0x00,0x6D
3.710781180000000,109,0x00,0x71
3.710793220000000,109,0x00,0x6F
3.710805240000000,109,0x00,0x6D
3.710817280000000,109,0x00,0x6E
3.710829300000000,109,0x00,0x75
3.710841340000000,109,0x00,0x7C
3.710853380000000,109,0x00,0x81
3.710865400000000,109,0x00,0x80
3.710877440000000,109,0x00,0x7A
3.710889480000000,109,0x00,0x72
3.710901500000000,109,0x00,0x6F
3.710913540000000,109,0x00,0x6C
3.710925560000000,109,0x00,0x66
3.710937600000000,109,0x00,0x5F
3.710949640000000,109,0x00,0x57
3.710961660000000,109,0x00,0x59
3.710973700000000,109,0x00,0x61
3.710985720000000,109,0x00,0x67
3.710997760000000,109,0x00,0x6D
3.711009780000000,109,0x00,0x6E
3.711021820000000,109,0x00,0x68
3.711033840000000,109,0x00,0x61
3.711045880000000,109,0x00,0x53
3.711057920000000,109,0x00,0x4C
3.711069940000000,109,0x00,0x4D
3.711081980000000,109,0x00,0x4A
3.711094000000000,109,0x00,0x4C
3.711106040000000,109,0x00,0x4D
3.711118080000000,109,0x00,0x51
3.711130100000000,109,0x00,0x56
3.711142140000000,109,0x00,0x57
3.711154160000000,109,0x00,0x59
3.711166200000000,109,0x00,0x61
3.711178220000000,109,0x00,0x66
3.711190260000000,109,0x00,0x68
3.711202300000000,109,0x00,0x67
3.711214320000000,109,0x00,0x65
3.711226360000000,109,0x00,0x62
3.711238400000000,109,0x00,0x61
3.711250420000000,109,0x00,0x60
3.711262460000000,109,0x00,0x66
3.711274500000000,109,0x00,0x69
3.711286520000000,109,0x00,0x6B
3.711298560000000,109,0x00,0x71
3.711310580000000,109,0x00,0x7D
3.711322620000000,109,0x00,0x8B
3.711334660000000,109,0x00,0x9C
3.711346680000000